[Version] 2.0
! Touchstone file exported from ANSYS Full-Wave Spice
! Project: 0000_AC_Log_Sweep
!  Design: unknown
! Creation time: Fri May 21 15:57:20 2021
! Notes: ! Touchstone(R) file created by SIwave 2021 R1
!      : ! Touchstone(R) file created on Fri May 21 15:57:20 2021

# HZ S MA R 1
! Modal data exported
! Port[1] = C3M9
! Port[2] = Port_U2A5_V3P3_S0_AA26_U2A5_GND_AD20
! Port[3] = Port_U2M1_V3P3_S0_A1_U2M1_GND_D1
[Number of Ports] 3
[Number of Frequencies] 82
[Matrix Format] Upper
[Reference]
  1  ! Port[1]
  50  ! Port[2]
  50  ! Port[3]
[Network Data]

0.0000000000000000e+00 9.2289174152425679e-01 -0.0000000000000000e+00 2.7188238555983801e-01 1.8000000000000000e+02 2.7187226851584295e-01 1.8000000000000000e+02 9.6130397344778018e-01 -1.8000000000000000e+02 
                       3.8594635212215678e-02 -0.0000000000000000e+00 9.6123241249113789e-01 -1.8000000000000000e+02 

1.0000000000000000e+01 9.2289174767551863e-01 -3.7684539032457970e-02 2.7188237175854696e-01 1.7998184976253322e+02 2.7187225471799054e-01 1.7998182131573483e+02 9.6130397741670581e-01 -1.7999927225429965e+02 
                       3.8594633250683685e-02 -1.8162422003210121e-02 9.6123241646162372e-01 -1.7999926969950570e+02 

1.2589300000000000e+01 9.2289175127343148e-01 -4.7442195723537459e-02 2.7188236368610891e-01 1.7997715012200032e+02 2.7187224664756371e-01 1.7997711430947041e+02 9.6130397973814874e-01 -1.7999908381916211e+02 
                       3.8594632103374660e-02 -2.2865217480838928e-02 9.6123241878397903e-01 -1.7999908060285537e+02 

1.5848900000000000e+01 9.2289175697562964e-01 -5.9725845811133507e-02 2.7188235089272972e-01 1.7997123387161986e+02 2.7187223385737180e-01 1.7997118878656698e+02 9.6130398341722556e-01 -1.7999884660330127e+02 
                       3.8594630285093863e-02 -2.8785439538922940e-02 9.6123242246450213e-01 -1.7999884255423393e+02 

1.9952600000000000e+01 9.2289176601285805e-01 -7.5190445267470291e-02 2.7188233061605604e-01 1.7996378556086239e+02 2.7187221358574998e-01 1.7996372880208710e+02 9.6130398924831517e-01 -1.7999854795857138e+02 
                       3.8594627403237054e-02 -3.6238750477764613e-02 9.6123242829788402e-01 -1.7999854286109328e+02 

2.5118900000000000e+01 9.2289178033637553e-01 -9.4659398627114713e-02 2.7188229847939349e-01 1.7995440860823956e+02 2.7187218145709424e-01 1.7995433715297452e+02 9.6130399849006165e-01 -1.7999817198387851e+02 
                       3.8594622835759151e-02 -4.5621998024977406e-02 9.6123243754326337e-01 -1.7999816556651729e+02 

3.1622800000000002e+01 9.2289180303695939e-01 -1.1916902541794092e-01 2.7188224754682505e-01 1.7994260388462587e+02 2.7187213053721543e-01 1.7994251392780612e+02 9.6130401313705749e-01 -1.7999769866651562e+02 
                       3.8594615596881106e-02 -5.7434646395271342e-02 9.6123245219601683e-01 -1.7999769058754208e+02 

3.9810699999999997e+01 9.2289183901506144e-01 -1.5002470747817034e-01 2.7188216682456573e-01 1.7992774267060631e+02 2.7187204983506785e-01 1.7992762942174832e+02 9.6130403635086004e-01 -1.7999710279797122e+02 
                       3.8594604124092484e-02 -7.2305837104843618e-02 9.6123247541894452e-01 -1.7999709262715825e+02 

5.0118699999999997e+01 9.2289189603671917e-01 -1.8886984638239543e-01 2.7188203888808021e-01 1.7990903344393979e+02 2.7187192193045751e-01 1.7990889087195242e+02 9.6130407314233779e-01 -1.7999635264245379e+02 
                       3.8594585940901538e-02 -9.1027623820062242e-02 9.6123251222488471e-01 -1.7999633983815971e+02 

6.3095700000000001e+01 9.2289198640973813e-01 -2.3777290419048108e-01 2.7188183612285127e-01 1.7988547995729533e+02 2.7187171921574738e-01 1.7988530046955714e+02 9.6130413145273741e-01 -1.7999540825639522e+02 
                       3.8594557122547966e-02 -1.1459692279630022e-01 9.6123257055820555e-01 -1.7999539213674609e+02 

7.9432800000000000e+01 9.2289212964058887e-01 -2.9933817496448023e-01 2.7188151476196770e-01 1.7985582788610299e+02 2.7187139793493126e-01 1.7985560192386373e+02 9.6130422386828795e-01 -1.7999421935006893e+02 
                       3.8594511448584952e-02 -1.4426890090674169e-01 9.6123266301008381e-01 -1.7999419905662947e+02 

1.0000000000000000e+02 9.2289235664516800e-01 -3.7684404507170244e-01 2.7188100544127575e-01 1.7981849823623489e+02 2.7187088874113868e-01 1.7981821376553222e+02 9.6130437033625660e-01 -1.7999272261913765e+02 
                       3.8594439060513984e-02 -1.8162361279286782e-01 9.6123280953562718e-01 -1.7999269707120646e+02 

1.2589300000000000e+02 9.2289271642619031e-01 -4.7441927308400911e-01 2.7188019821308346e-01 1.7977150243892353e+02 2.7187008171407478e-01 1.7977114430819958e+02 9.6130460247440375e-01 -1.7999083834354323e+02 
                       3.8594324331832047e-02 -2.2865096319795192e-01 9.6123304176502422e-01 -1.7999080618049231e+02 

1.5848900000000000e+02 9.2289328660735093e-01 -5.9725310264888742e-01 2.7187891891253618e-01 1.7971234114820945e+02 2.7186880273228731e-01 1.7971189028685689e+02 9.6130497036694118e-01 -1.7998846633612936e+02 
                       3.8594142509062554e-02 -2.8785197796348388e-01 9.6123340980217231e-01 -1.7998842584548851e+02 

1.9952600000000001e+02 9.2289419028207620e-01 -7.5189376719837453e-01 2.7187689134604232e-01 1.7963786046109192e+02 2.7186677567102174e-01 1.7963729285174264e+02 9.6130555343684709e-01 -1.7998548019050341e+02 
                       3.8593854337720848e-02 -3.6238268141062135e-01 9.6123399310126612e-01 -1.7998542921578732e+02 

2.5118899999999999e+02 9.2289562246846801e-01 -9.4657266610495538e-01 2.7187367792683959e-01 1.7954409576427915e+02 2.7186356305260101e-01 1.7954338116853782e+02 9.6130647751427656e-01 -1.7998172104547851e+02 
                       3.8593397625043137e-02 -4.5621035643124302e-01 9.6123491754191148e-01 -1.7998165687199560e+02 

3.1622800000000001e+02 9.2289789215833551e-01 -1.1916477159764727e+00 2.7186858529715774e-01 1.7942605816367947e+02 2.7185847169215893e-01 1.7942515850950366e+02 9.6130794196874947e-01 -1.7997698907272655e+02 
                       3.8592673826375753e-02 -5.7432726238741638e-01 9.6123638257196919e-01 -1.7997690828324923e+02 

3.9810700000000003e+02 9.2290148899783153e-01 -1.5001622034766617e+00 2.7186051464007438e-01 1.7927746524786724e+02 2.7185040304693209e-01 1.7927633258773758e+02 9.6131026273426090e-01 -1.7997103278313091e+02 
                       3.8591526770493170e-02 -7.2302006040766897e-01 9.6123870424955093e-01 -1.7997093107551535e+02 

5.0118700000000001e+02 9.2290718871668453e-01 -1.8885291336682821e+00 2.7184772493066195e-01 1.7909041133602719e+02 2.7183761652674959e-01 1.7908898527386302e+02 9.6131394033824380e-01 -1.7996353600767048e+02 
                       3.8589709011265315e-02 -9.1019980280954293e-01 9.6124238329865574e-01 -1.7996340796575532e+02 

6.3095699999999999e+02 9.2291621987587835e-01 -2.3773912166046487e+00 2.7182745830123378e-01 1.7885495298804150e+02 2.7181735495351761e-01 1.7885315742768981e+02 9.6131976750105963e-01 -1.7995410168181968e+02 
                       3.8586828582058433e-02 -1.1458167331862956e+00 9.6124821275078565e-01 -1.7995394048737231e+02 

7.9432799999999997e+02 9.2293052758843919e-01 -2.9927078024155644e+00 2.7179534706551739e-01 1.7855858492090786e+02 2.7178525173538653e-01 1.7855632393577520e+02 9.6132899931905313e-01 -1.7994223163642297e+02 
                       3.8582264718044441e-02 -1.4423847855185636e+00 9.6125744819447034e-01 -1.7994202870609936e+02 

1.0000000000000000e+03 9.2295318941140880e-01 -3.7670960747406910e+00 2.7174447739334734e-01 1.7818559289451275e+02 2.7173439478039563e-01 1.7818274546834871e+02 9.6134362166999898e-01 -1.7992730225235377e+02 
                       3.8575034779395223e-02 -1.8156292599319392e+00 9.6127207628514588e-01 -1.7992704678114305e+02 

1.2589300000000001e+03 9.2298907055051638e-01 -4.7415113512466416e+00 2.7166391121643124e-01 1.7771624213789221e+02 2.7165384878473969e-01 1.7771265540485066e+02 9.6136677412429139e-01 -1.7990853510428923e+02 
                       3.8563584174685854e-02 -2.2852991950255279e+00 9.6129523781989634e-01 -1.7990821348987399e+02 

1.5848899999999999e+03 9.2304584536772449e-01 -5.9671843225420274e+00 2.7153637421792576e-01 1.7712583979016901e+02 2.7152634383410063e-01 1.7712132034982446e+02 9.6140340944109459e-01 -1.7988496567727236e+02 
                       3.8545457762653695e-02 -2.8761060621240362e+00 9.6133188748612042e-01 -1.7988456080275455e+02 

1.9952600000000000e+03 9.2313560291332886e-01 -7.5082798606615180e+00 2.7133460337403437e-01 1.7638344538257695e+02 2.7132462394500351e-01 1.7637774768320330e+02 9.6146133048617688e-01 -1.7985540416612713e+02 
                       3.8516780740851964e-02 -3.6190151609793859e+00 9.6138983117019439e-01 -1.7985489448190395e+02 

2.5118900000000003e+03 9.2327729411012349e-01 -9.4444938209735714e+00 2.7101573163447867e-01 1.7545060260091623e+02 2.7100583336941581e-01 1.7544341352282385e+02 9.6155277167905573e-01 -1.7981840917178113e+02 
                       3.8471460560409856e-02 -4.5525167260654431e+00 9.6148130798467613e-01 -1.7981776756035353e+02 

3.1622800000000002e+03 9.2350044477007709e-01 -1.1874214310293919e+01 2.7051264932120733e-01 1.7427978260209321e+02 2.7050288071011230e-01 1.7427069998915533e+02 9.6169680081650033e-01 -1.7977227317221869e+02 
                       3.8399959155329420e-02 -5.7241876865481416e+00 9.6162539293353488e-01 -1.7977146551684649e+02 

3.9810699999999997e+03 9.2385060998201929e-01 -1.4917617515882167e+01 2.6972101362709200e-01 1.7281282757599340e+02 2.6971145306979749e-01 1.7280132913391162e+02 9.6192285329443006e-01 -1.7971505228400852e+02 
                       3.8287446663067916e-02 -7.1922572116960888e+00 9.6185153227416953e-01 -1.7971403566429728e+02 

5.0118699999999999e+03 9.2439695506245489e-01 -1.8718682637018361e+01 2.6848042861631638e-01 1.7097985806699191e+02 2.6847120427642401e-01 1.7096525424839902e+02 9.6227565945334914e-01 -1.7964469590308596e+02 
                       3.8111126662518278e-02 -9.0267162529241016e+00 9.6220447220554262e-01 -1.7964341632920491e+02 

6.3095699999999997e+03 9.2524182043009562e-01 -2.3444596748175588e+01 2.6654873746131547e-01 1.6869934018763249e+02 2.6654006234713057e-01 1.6868069881582704e+02 9.6282150048182380e-01 -1.7955936439794314e+02 
                       3.7836582641198456e-02 -1.1309282595111140e+01 9.6275051586002336e-01 -1.7955775394107769e+02 

7.9432799999999997e+03 9.2653045809630441e-01 -2.9279574431922359e+01 2.6357060913909697e-01 1.6588069438546069e+02 2.6356284594668195e-01 1.6585671329393085e+02 9.6365468145592248e-01 -1.7945807296772429e+02 
                       3.7413314162806036e-02 -1.4130855149941752e+01 9.6358399590305011e-01 -1.7945604604237639e+02 

1.0000000000000000e+04 9.2845521324385172e-01 -3.6407976063130526e+01 2.5904796516362999e-01 1.6243188193595950e+02 2.5904175274253216e-01 1.6240066344796952e+02 9.6490063549450233e-01 -1.7934182801947563e+02 
                       3.6770536815681425e-02 -1.7584052312690286e+01 9.6483037409737349e-01 -1.7933927636775584e+02 

1.2589299999999999e+04 9.3124181876472134e-01 -4.4980729157866747e+01 2.5233243800999378e-01 1.5827496042599159e+02 2.5232895281315482e-01 1.5823359722963033e+02 9.6670786707613621e-01 -1.7921530288317396e+02 
                       3.5816121720228959e-02 -2.1747905061105207e+01 9.6663817279261732e-01 -1.7921208835123213e+02 

1.5848900000000000e+04 9.3509827351291730e-01 -5.5059532324944435e+01 2.4267990880175286e-01 1.5337273211116985e+02 2.4268143361288450e-01 1.5331653801032186e+02 9.6921626651046600e-01 -1.7908867333057219e+02 
                       3.4444387290910310e-02 -2.6661692354895486e+01 9.6914727507305398e-01 -1.7908461721140455e+02 

1.9952599999999999e+04 9.4011389942377521e-01 -6.6548277630061534e+01 2.2941285837885433e-01 1.4776295122113598e+02 2.2942404949901360e-01 1.4768407993503666e+02 9.7249351722392396e-01 -1.7897826505048565e+02 
                       3.2559309393727830e-02 -3.2291591979899280e+01 9.7242536430445303e-01 -1.7897313478574725e+02 

2.5118900000000001e+04 9.4613151748804758e-01 -7.9131985753738007e+01 2.1220877824127241e-01 1.4159148165422386e+02 2.1223927938126783e-01 1.4147691678794320e+02 9.7645228567851927e-01 -1.7890401885026120e+02 
                       3.0115904253039547e-02 -3.8498463232125545e+01 9.7638539970351901e-01 -1.7889753167863202e+02 

3.1622800000000003e+04 9.5269523792398181e-01 -9.2276273640929631e+01 1.9140876084137537e-01 1.3511782148256535e+02 1.9147647591964931e-01 1.3494892627611887e+02 9.8080551527816862e-01 -1.7888267542772269e+02 
                       2.7164784723811449e-02 -4.5030223919160214e+01 9.8074201773074010e-01 -1.7887460944161094e+02 

3.9810699999999997e+04 9.5920184711857936e-01 -1.0531699997193461e+02 1.6813164535089409e-01 1.2867244314544087e+02 1.6825645435290232e-01 1.2843476643284592e+02 9.8512628994928886e-01 -1.7891965077989508e+02 
                       2.3867486748091030e-02 -5.1549641858647021e+01 9.8507327599208816e-01 -1.7891022780387965e+02 

5.0118699999999997e+04 9.6512814900303023e-01 -1.1761371355984295e+02 1.4402423189083710e-01 1.2257885998043666e+02 1.4420351005386992e-01 1.2227829124653152e+02 9.8900132727698753e-01 -1.7900596631606126e+02 
                       2.0455358943198918e-02 -5.7702067149923906e+01 9.8896924485054349e-01 -1.7899601726635342e+02 

6.3095700000000004e+04 9.6989586740047484e-01 -1.2869990694161783e+02 1.2070096048570468e-01 1.1710318207377229e+02 1.2094659184155848e-01 1.1672175218960956e+02 9.9216749482963074e-01 -1.7912399248495541e+02 
                       1.7156119855510382e-02 -6.3253472233395144e+01 9.9215367899843854e-01 -1.7911342995719775e+02 

7.9432800000000003e+04 9.7340104967804220e-01 -1.3833596397807173e+02 9.9385506676139962e-02 1.1239399046302559e+02 9.9710449950739050e-02 1.1190782252105053e+02 9.9456357820628116e-01 -1.7925428361380148e+02 
                       1.4143502884962793e-02 -6.8060866590767390e+01 9.9456546590105754e-01 -1.7924288391997217e+02 

1.0000000000000000e+05 9.7576558444642147e-01 -1.4648505800454464e+02 8.0732752908783248e-02 1.0849975231786095e+02 8.1151514958218610e-02 1.0787691974902928e+02 9.9627205171138722e-01 -1.7938191374530851e+02 
                       1.1510625460590668e-02 -7.2083399531418195e+01 9.9628779643192078e-01 -1.7936934067603943e+02 

1.2589300000000000e+05 9.7724980799192107e-01 -1.5324739836117999e+02 6.4919827196372709e-02 1.0540261681901606e+02 6.5437661246943585e-02 1.0459636922699556e+02 9.9743764400337953e-01 -1.7949824101155281e+02 
                       9.2811312253757230e-03 -7.5350947951740764e+01 9.9746667450669690e-01 -1.7948405134485853e+02 

1.5848900000000000e+05 9.7806112714230420e-01 -1.5879228585062270e+02 5.1769029670823780e-02 1.0304221750659256e+02 5.2416988742266038e-02 1.0200222750889719e+02 9.9820753692326059e-01 -1.7959954765895355e+02 
                       7.4339212763921848e-03 -7.7930740375334508e+01 9.9824845429588449e-01 -1.7958322932744838e+02 

1.9952600000000000e+05 9.7840851797203710e-01 -1.6331064782876018e+02 4.0966471270999720e-02 1.0137169581815613e+02 4.1782276555681425e-02 1.0002032475954297e+02 9.9870401972053890e-01 -1.7968562318748724e+02 
                       5.9250934397891662e-03 -7.9895897988111059e+01 9.9875615699719156e-01 -1.7966651283736655e+02 

2.5118900000000000e+05 9.7845709240790479e-01 -1.6698827851054838e+02 3.2149034844544171e-02 1.0037025218236634e+02 3.3175255139804051e-02 9.8581082774010625e+01 9.9901766851928986e-01 -1.7975797815648266e+02 
                       4.7037233902202701e-03 -8.1314081028718959e+01 9.9908106726957013e-01 -1.7973525131102883e+02 

3.1622800000000000e+05 9.7831499664268440e-01 -1.6999423846061518e+02 2.4970515965885513e-02 1.0008842368882181e+02 2.6243052176831670e-02 9.7628607834739526e+01 9.9921115356597590e-01 -1.7981886179823698e+02 
                       3.7196410245358773e-03 -8.2236985398165174e+01 9.9928666911872122e-01 -1.7979149351105866e+02 

3.9810700000000000e+05 9.7802112090711102e-01 -1.7247699849839253e+02 1.9082955833065556e-02 1.0047764675915711e+02 2.0665183819623251e-02 9.7133966312407580e+01 9.9932642755404810e-01 -1.7987060877107726e+02 
                       2.9281213810911887e-03 -8.2693207845875705e+01 9.9941522715338194e-01 -1.7983742230964819e+02 

5.0118700000000000e+05 9.7754819390462855e-01 -1.7456312866304492e+02 1.4209796565073074e-02 1.0203337212247209e+02 1.6166062546975800e-02 9.7120715636440821e+01 9.9939074348168944e-01 -1.7991565774664267e+02 
                       2.2892030666106667e-03 -8.2655601005741573e+01 9.9949391905278806e-01 -1.7987508450592398e+02 

6.3095700000000000e+05 9.7686221976270582e-01 -1.7636016333755191e+02 1.0117853443714157e-02 1.0543953674598852e+02 1.2517377470791657e-02 9.7709346497462647e+01 9.9942092662842197e-01 -1.7995620211418534e+02 
                       1.7709177825673389e-03 -8.1999326452950655e+01 9.9953959464987252e-01 -1.7990629655753040e+02 

7.9432800000000000e+05 9.7597789450634143e-01 -1.7796936320977110e+02 6.6310047336816920e-03 1.1309985852707196e+02 9.5341799373435451e-03 9.9197508150128286e+01 9.9942697138993042e-01 -1.7999444662137057e+02 
                       1.3468529247113643e-03 -8.0420448599893646e+01 9.9956195168124706e-01 -1.7993264666774724e+02 

1.0000000000000000e+06 9.7470526033789584e-01 -1.7949896524365300e+02 3.8079216144026652e-03 1.3457473196627831e+02 7.0640526276438053e-03 1.0230991084401235e+02 9.9941212460159312e-01 1.7996729214495596e+02 
                       9.9540584551896234e-04 -7.7167614262255952e+01 9.9956504523418055e-01 -1.7995555517862425e+02 

1.2589300000000000e+06 9.7248189059603807e-01 1.7893520429662289e+02 3.0270843217200397e-03 -1.6749582427357311e+02 4.9946780551182006e-03 1.0918899474621183e+02 9.9937033696044697e-01 1.7992636771278063e+02 
                       7.0103222320333806e-04 -7.0026687186158753e+01 9.9954603090879901e-01 -1.7997638345157756e+02 

1.5848900000000000e+06 9.6805636300343123e-01 1.7718386771903897e+02 5.6474965092740562e-03 -1.3006259107493037e+02 3.3894437766365170e-03 1.2741391074012785e+02 9.9927537373347719e-01 1.7987949365528499e+02 
                       4.7407270974925337e-04 -5.1199587995200091e+01 9.9948543539395274e-01 -1.7999655979421055e+02 

1.9952600000000000e+06 9.5731270672273749e-01 1.7504084930475679e+02 1.0192107893773228e-02 -1.2187236841403693e+02 3.4228822556968755e-03 1.6706308119894422e+02 9.9903438077028417e-01 1.7982313714472389e+02 
                       4.8400832641003850e-04 -1.1098739327671167e+01 9.9929110425407008e-01 1.7998345953620256e+02 

2.5118900000000000e+06 9.3038580339970334e-01 1.7317202379689545e+02 1.5005822084075342e-02 -1.2873856736675924e+02 6.4151851978676957e-03 1.6070791726851081e+02 9.9848470598867911e-01 1.7977184257821543e+02 
                       9.0398012195416972e-04 -1.8085452171967681e+01 9.9885768114517770e-01 1.7999641400917355e+02 

3.1622800000000000e+06 9.3738842198927574e-01 1.6923880157978670e+02 2.1564115771123767e-02 -1.1562317242768395e+02 2.5834084818189313e-03 1.5968997291418609e+02 9.9854325401857236e-01 1.7967735005980032e+02 
                       3.5624811109241520e-04 -1.9097370151728693e+01 9.9957222850105854e-01 1.7998679013106442e+02 

3.9810700000000000e+06 8.1396322101251939e-01 1.5412001389981234e+02 5.4190001105605817e-02 -1.2825943918842518e+02 9.1116041021831132e-03 -1.4438022640428099e+02 9.9543673500260987e-01 1.7945261871810007e+02 
                       1.2230162372837232e-03 3.7164145848672725e+01 9.9948352850807387e-01 1.7994807841369280e+02 

5.0118700000000000e+06 6.2625345103351848e-01 -1.4264944878267579e+02 8.4540328714213187e-02 1.4033309776925449e+02 2.0960694004327735e-02 1.3087815165942331e+02 9.9112644401035166e-01 -1.7988624239080917e+02 
                       2.6911242934250061e-03 -4.7088967977531901e+01 9.9928865409769840e-01 1.7995661678286720e+02 

