! Touchstone file exported from HFSS 2024.1.1
!        File:           D:/AEDT_Default/Farfield/Array/Horn_multimode.aedt
!        Generated:      07:42:56 PM Jul  3, 2024
!        Design:         Array_Rectagular1
!        Project:        Horn_multimode
!        Setup:          Setup1
!        Solution:       Sweep
!
! Variables:
!        ScanAnglePhi = 0deg
!        ScanAngleTheta = 0deg
!        ScanFrequency = 26000000000Hz
!        ScanMag1 = 1V
!        ScanPhase1 = 0deg
!        ScanPhaseShiftA = -((ScanFrequency*-1.15271476207e-10*sin(ScanAngleTheta)*cos(ScanAnglePhi)) + (ScanFrequency*0.0*sin(ScanAngleTheta)*sin(ScanAnglePhi))) rad
!        ScanPhaseShiftB = -((ScanFrequency*0.0*sin(ScanAngleTheta)*cos(ScanAnglePhi)) + (ScanFrequency*-8.38338008781e-11*sin(ScanAngleTheta)*sin(ScanAnglePhi))) rad
!
# GHz S MA R 50.000000
! Terminal data exported
! Port[1] = A[1,1]Rect_UnitCell1_1_Patch_T1
! Port[2] = A[1,2]Rect_UnitCell1_1_Patch_T1
! Port[3] = A[2,1]Rect_UnitCell1_1_Patch_T1
! Port[4] = A[2,2]Rect_UnitCell1_1_Patch_T1
21                             0.900610508050116 -47.4682007347583 0.0293521223348743 172.091618396908 0.0160647262895002 150.642426208933 0.0113548780639101 85.5189195789545 
                               0.0293521223348743 172.091618396908 0.880562513793162 -50.3818290563135 0.010712544253317 52.7121148928106 0.0175397867172671 133.253500025895 
                               0.0160647262895002 150.642426208933 0.010712544253317 52.7121148928106 0.868216317642176 -52.9870178048576 0.0295722291063505 168.057029148532 
                               0.0113548780639101 85.5189195789545 0.0175397867172671 133.253500025895 0.0295722291063505 168.057029148532 0.845917026249505 -54.6985881112366 
23.5                           0.682022528950041 -101.261525642674 0.102701612986637 77.568831725767  0.0296598686277558 79.111516221371  0.024868151365819 -14.3596069604973 
                               0.102701612986637 77.568831725767  0.610114094572201 -107.029111659352 0.0447033566832732 -62.5641438443203 0.0255257616450903 44.8718847738546 
                               0.0296598686277558 79.1115162213709 0.0447033566832732 -62.5641438443203 0.634162230145677 -111.113679636468 0.0924051824822028 78.1944481188471 
                               0.024868151365819 -14.3596069604973 0.0255257616450903 44.8718847738546 0.0924051824822028 78.1944481188471 0.58918784814637 -114.146168391038 
26                             0.239327249877791 19.7779020459289 0.120953310339969 -118.366544693884 0.0364952399686673 -138.625148636023 0.0316455494207553 158.38996435521  
                               0.120953310339969 -118.366544693884 0.252828812477578 20.5657238068658 0.0987683083710207 97.9213894615848 0.0527759647852499 -127.400193118646 
                               0.0364952399686673 -138.625148636023 0.0987683083710207 97.9213894615848 0.200721566890342 23.3200118065734 0.0627463710736057 -137.101655742803 
                               0.0316455494207553 158.38996435521  0.0527759647852499 -127.400193118646 0.0627463710736057 -137.101655742803 0.227229795639128 37.1785754537304 
28.5                           0.322709109499383 59.6550761894353 0.139618085920569 -83.639775895903 0.0076818705410265 -72.7492353722993 0.052219163264573 66.1077799402956 
                               0.139618085920569 -83.639775895903 0.29846966820807 44.8429193026442 0.0369421515703851 -88.3509547736414 0.0447514334517778 95.8890665965625 
                               0.0076818705410265 -72.7492353722993 0.0369421515703851 -88.3509547736414 0.386052625998056 57.5509053376852 0.141263853422112 -102.078505236734 
                               0.052219163264573 66.1077799402956 0.0447514334517778 95.8890665965625 0.141263853422112 -102.078505236734 0.343612937356859 41.9817760907321 
31                             0.414302148292603 -52.8600275077602 0.0920980715356313 159.870356442782 0.0695145284523113 -44.1100443464195 0.0661538269996714 -69.4912867119714 
                               0.0920980715356313 159.870356442782 0.362347392694812 -66.1120034972503 0.0166661949691426 72.6938418465635 0.0960559279054706 -31.5824157381074 
                               0.0695145284523113 -44.1100443464195 0.0166661949691426 72.6938418465635 0.34525592253439 -67.5534660868746 0.101523382162328 142.782501033807 
                               0.0661538269996714 -69.4912867119714 0.0960559279054706 -31.5824157381074 0.101523382162328 142.782501033807 0.307379567787548 -75.7028620415718 
