!Murata Part Number: GRM32ER60J227ME05
!These Parameters are Measured in Series Mode Connection
!       o--ll--o
!Port1            Port2
!       o------o
!Operation Temp=25[degC], DC Bias Voltage=0[V]
!Freq. Start=100[Hz] Stop=6[GHz], 401[Steps]
!Data Generated on Dec 1, 2020
# Hz S RI R 50
!Freq.(Hz) S11(Real) S11(Imag) S21(Real) S21(Imag) S12(Real) S12(Imag) S22(Real) S22(Imag)
100.0 0.009548598771238096 -0.09085931416660367 0.9904514012287621 0.09085931416660367 0.9904514012287621 0.09085931416660367 0.009548598771238096 -0.09085931416660367
104.57921513303334 0.00879840663859562 -0.08697973095208843 0.9912015933614043 0.08697973095208843 0.9912015933614043 0.08697973095208843 0.00879840663859562 -0.08697973095208843
109.3681223784127 0.008109526451107432 -0.0832606988275034 0.9918904735488927 0.0832606988275034 0.9918904735488927 0.0832606988275034 0.008109526451107432 -0.0832606988275034
114.3763239890794 0.007476929605212707 -0.07969631455685203 0.992523070394787 0.07969631455685203 0.992523070394787 0.07969631455685203 0.007476929605212707 -0.07969631455685203
119.61386192579457 0.006895976754229003 -0.07628079601905756 0.993104023245771 0.07628079601905756 0.993104023245771 0.07628079601905756 0.006895976754229003 -0.07628079601905756
125.09123799230618 0.0063623911308386474 -0.0730084914382681 0.9936376088691614 0.0730084914382681 0.9936376088691614 0.0730084914382681 0.0063623911308386474 -0.0730084914382681
130.8194348925486 0.005872233401073978 -0.06987388680787102 0.9941277665989261 0.06987388680787102 0.9941277665989261 0.06987388680787102 0.005872233401073978 -0.06987388680787102
136.8099382520969 0.005421878007766082 -0.06687161172877767 0.9945781219922339 0.06687161172877767 0.9945781219922339 0.06687161172877767 0.005421878007766082 -0.06687161172877767
143.0747596480305 0.005007990951785191 -0.06399644386274962 0.9949920090482149 0.06399644386274962 0.9949920090482149 0.06399644386274962 0.005007990951785191 -0.06399644386274962
149.6264606933842 0.004627508951162248 -0.061243312182280095 0.995372491048838 0.061243312182280095 0.995372491048838 0.061243312182280095 0.004627508951162248 -0.061243312182280095
156.47817822447783 0.004277619911432053 -0.0586072991797019 0.9957223800885681 0.0586072991797019 0.9957223800885681 0.0586072991797019 0.004277619911432053 -0.0586072991797019
163.643650641628 0.0039557446353952475 -0.056083642179717064 0.996044255364605 0.056083642179717064 0.996044255364605 0.056083642179717064 0.0039557446353952475 -0.056083642179717064
171.13724545605763 0.003659519697084682 -0.05366773388149035 0.9963404803029152 0.05366773388149035 0.9963404803029152 0.05366773388149035 0.003659519697084682 -0.05366773388149035
178.97398809823787 0.0033867814031509434 -0.051355122238935985 0.9966132185968493 0.051355122238935985 0.9966132185968493 0.051355122238935985 0.0033867814031509434 -0.051355122238935985
187.1695920454257 0.0031355507652252135 -0.04914150977107024 0.9968644492347749 0.04914150977107024 0.9968644492347749 0.04914150977107024 0.0031355507652252135 -0.04914150977107024
195.74049032880657 0.002904019409084972 -0.047022752378572084 0.9970959805909151 0.047022752378572084 0.9970959805909151 0.047022752378572084 0.002904019409084972 -0.047022752378572084
204.70386848341695 0.0026905363505634783 -0.04499485772830746 0.9973094636494367 0.04499485772830746 0.9973094636494367 0.04499485772830746 0.0026905363505634783 -0.04499485772830746
214.0776990069143 0.00249359557392913 -0.04305398325487042 0.9975064044260709 0.04305398325487042 0.9975064044260709 0.04305398325487042 0.00249359557392913 -0.04305398325487042
223.88077739628844 0.0023118243556244145 -0.04119643381748366 0.9976881756443753 0.04119643381748366 0.9976881756443753 0.04119643381748366 0.0023118243556244145 -0.04119643381748366
234.132759834772 0.0021439722843983183 -0.03941865904214681 0.9978560277156018 0.03941865904214681 0.9978560277156018 0.03941865904214681 0.0021439722843983183 -0.03941865904214681
244.85420260451448 0.0019889009375026845 -0.03771725037287488 0.9980110990624973 0.03771725037287488 0.9980110990624973 0.03771725037287488 0.0019889009375026845 -0.03771725037287488
256.06660330404856 0.0018455741812073358 -0.03608893785225608 0.9981544258187927 0.03608893785225608 0.9981544258187927 0.03608893785225608 0.0018455741812073358 -0.03608893785225608
267.792443953192 0.0017130490718652886 -0.03453058665025662 0.9982869509281346 0.03453058665025662 0.9982869509281346 0.03453058665025662 0.0017130490718652886 -0.03453058665025662
280.0552360718164 0.0015904673406111126 -0.03303919336092032 0.9984095326593888 0.03303919336092032 0.9984095326593888 0.03303919336092032 0.0015904673406111126 -0.03303919336092032
292.87956782286926 0.001477047450078285 -0.031611882088936595 0.9985229525499218 0.031611882088936595 0.9985229525499218 0.031611882088936595 0.001477047450078285 -0.031611882088936595
306.2911533141767 0.0013720772149861768 -0.030245900351449043 0.9986279227850138 0.030245900351449043 0.9986279227850138 0.030245900351449043 0.0013720772149861768 -0.030245900351449043
320.3168841578819 0.0012749069799512164 -0.02893861482436359 0.9987250930200491 0.02893861482436359 0.9987250930200491 0.02893861482436359 0.0012749069799512164 -0.02893861482436359
334.9848833909005 0.0011849433474732827 -0.02768750696620445 0.9988150566525269 0.02768750696620445 0.9988150566525269 0.02768750696620445 0.0011849433474732827 -0.02768750696620445
350.32456186451077 0.0011016434469571762 -0.026490168555725207 0.9988983565530429 0.026490168555725207 0.9988983565530429 0.026490168555725207 0.0011016434469571762 -0.026490168555725207
366.36667721614316 0.0010245097322064867 -0.025344297181589773 0.9989754902677934 0.025344297181589773 0.9989754902677934 0.025344297181589773 0.0010245097322064867 -0.025344297181589773
383.1433955416162 9.530852905217975E-4 -0.02424769172320801 0.9990469147094782 0.02424769172320801 0.9990469147094782 0.02424769172320801 9.530852905217975E-4 -0.02424769172320801
400.68835589147574 8.869496418354709E-4 -0.023198247861116995 0.9991130503581644 0.023198247861116995 0.9991130503581644 0.023198247861116995 8.869496418354709E-4 -0.023198247861116995
419.03673772076064 8.257150016972441E-4 -0.022193953653170125 0.9991742849983027 0.022193953653170125 0.9991742849983027 0.022193953653170125 8.257150016972441E-4 -0.022193953653170125
438.225331427439 7.690229778060738E-4 -0.021232885209392 0.9992309770221939 0.021232885209392 0.9992309770221939 0.021232885209392 7.690229778060738E-4 -0.021232885209392
458.2926121209498 7.165416664893706E-4 -0.02031320249394203 0.9992834583335106 0.02031320249394203 0.9992834583335106 0.02031320249394203 7.165416664893706E-4 -0.02031320249394203
479.2788167687661 6.679631132747465E-4 -0.019433145277528378 0.999332036886725 0.019433145277528378 0.999332036886725 0.019433145277528378 6.679631132747465E-4 -0.019433145277528378
501.22602487566456 6.230011005795206E-4 -0.018591029258172773 0.9993769988994203 0.018591029258172773 0.9993769988994203 0.018591029258172773 6.230011005795206E-4 -0.018591029258172773
524.1782428574726 5.813892255505006E-4 -0.017785242362778158 0.9994186107744495 0.017785242362778158 0.9994186107744495 0.017785242362778158 5.813892255505006E-4 -0.017785242362778158
548.1814922784702 5.428792321232497E-4 -0.017014241236784817 0.9994571207678768 0.017014241236784817 0.9994571207678768 0.017014241236784817 5.428792321232497E-4 -0.017014241236784817
573.2839021293739 5.072395632739447E-4 -0.016276547924544044 0.9994927604367262 0.016276547924544044 0.9994927604367262 0.016276547924544044 5.072395632739447E-4 -0.016276547924544044
599.5358053309263 4.7425410200692793E-4 -0.015570746739049996 0.9995257458979929 0.015570746739049996 0.9995257458979929 0.015570746739049996 4.7425410200692793E-4 -0.015570746739049996
626.9898396565933 4.4372107264128643E-4 -0.014895481316436898 0.9995562789273588 0.014895481316436898 0.9995562789273588 0.014895481316436898 4.4372107264128643E-4 -0.014895481316436898
655.7010532767296 4.1545207721994996E-4 -0.014249451848194407 0.9995845479227802 0.014249451848194407 0.9995845479227802 0.014249451848194407 4.1545207721994996E-4 -0.014249451848194407
685.7270151358366 3.892712451753071E-4 -0.013631412482348525 0.9996107287548248 0.013631412482348525 0.9996107287548248 0.013631412482348525 3.892712451753071E-4 -0.013631412482348525
717.1279303842347 3.6501447758719986E-4 -0.013040168883828293 0.999634985522413 0.013040168883828293 0.999634985522413 0.013040168883828293 3.6501447758719986E-4 -0.013040168883828293
749.9667610955984 3.4252877033907057E-4 -0.012474575943793732 0.9996574712296611 0.012474575943793732 0.9996574712296611 0.012474575943793732 3.4252877033907057E-4 -0.012474575943793732
784.3093525124082 3.2167160312923275E-4 -0.011933535627723448 0.999678328396871 0.011933535627723448 0.999678328396871 0.011933535627723448 3.2167160312923275E-4 -0.011933535627723448
820.2245650724522 3.023103835747781E-4 -0.011415994952434984 0.9996976896164252 0.011415994952434984 0.9996976896164252 0.011415994952434984 3.023103835747781E-4 -0.011415994952434984
857.7844124811068 2.8432193753457117E-4 -0.010920944082821262 0.9997156780624653 0.010920944082821262 0.9997156780624653 0.010920944082821262 2.8432193753457117E-4 -0.010920944082821262
897.0642061062428 2.675920382806027E-4 -0.01044741453982688 0.9997324079617192 0.01044741453982688 0.9997324079617192 0.01044741453982688 2.675920382806027E-4 -0.01044741453982688
938.1427059852851 2.5201496829068424E-4 -0.009994477511964521 0.9997479850317093 0.009994477511964521 0.9997479850317093 0.009994477511964521 2.5201496829068424E-4 -0.009994477511964521
981.102278747212 2.3749310826393005E-4 -0.009561242263406752 0.9997625068917358 0.009561242263406752 0.9997625068917358 0.009561242263406752 2.3749310826393005E-4 -0.009561242263406752
1026.0290627661395 2.2393654852999187E-4 -0.009146854632320503 0.9997760634514699 0.009146854632320503 0.9997760634514699 0.009146854632320503 2.2393654852999187E-4 -0.009146854632320503
1073.0131408776467 2.1126271839832047E-4 -0.008750495613597246 0.9997887372816016 0.008750495613597246 0.9997887372816016 0.008750495613597246 2.1126271839832047E-4 -0.008750495613597246
1122.1487210041523 1.9939602924410783E-4 -0.008371380020447402 0.999800603970756 0.008371380020447402 0.999800603970756 0.008371380020447402 1.9939602924410783E-4 -0.008371380020447402
1173.5343250515148 1.8826752732294181E-4 -0.008008755219465808 0.9998117324726769 0.008008755219465808 0.9998117324726769 0.008008755219465808 1.8826752732294181E-4 -0.008008755219465808
1227.2729864556143 1.7781455251318103E-4 -0.007661899933749767 0.9998221854474869 0.007661899933749767 0.9998221854474869 0.007661899933749767 1.7781455251318103E-4 -0.007661899933749767
1283.4724567750195 1.6798039946261368E-4 -0.007330123108491097 0.9998320196005376 0.007330123108491097 0.9998320196005376 0.007330123108491097 1.6798039946261368E-4 -0.007330123108491097
1342.245421743976 1.5871397801123121E-4 -0.007012762833214718 0.9998412860219887 0.007012762833214718 0.9998412860219887 0.007012762833214718 1.5871397801123121E-4 -0.007012762833214718
1403.7097272189235 1.4996947030606705E-4 -0.0067091853145548955 0.9998500305296941 0.0067091853145548955 0.9998500305296941 0.0067091853145548955 1.4996947030606705E-4 -0.0067091853145548955
1467.9886154715937 1.417059827288659E-4 -0.006418783893211982 0.9998582940172709 0.006418783893211982 0.9998582940172709 0.006418783893211982 1.417059827288659E-4 -0.006418783893211982
1535.2109723024755 1.338871916131844E-4 -0.006140978098582625 0.9998661128083869 0.006140978098582625 0.9998661128083869 0.006140978098582625 1.338871916131844E-4 -0.006140978098582625
1605.5115854701387 1.2648098270294107E-4 -0.005875212734566757 0.9998735190172972 0.005875212734566757 0.9998735190172972 0.005875212734566757 1.2648098270294107E-4 -0.005875212734566757
1679.0314149545911 1.1945908534811318E-4 -0.0056209569902740016 0.9998805409146518 0.0056209569902740016 0.9998805409146518 0.0056209569902740016 1.1945908534811318E-4 -0.0056209569902740016
1755.9178755965756 1.127967034783524E-4 -0.005377703569810981 0.9998872032965219 0.005377703569810981 0.9998872032965219 0.005377703569810981 1.127967034783524E-4 -0.005377703569810981
1836.3251326795319 1.0647214636589783E-4 -0.005144967836036962 0.9998935278536341 0.005144967836036962 0.9998935278536341 0.005144967836036962 1.0647214636589783E-4 -0.005144967836036962
1920.4144110468878 1.0046646300858436E-4 -0.004922286964110031 0.9998995335369915 0.004922286964110031 0.9998995335369915 0.004922286964110031 1.0046646300858436E-4 -0.004922286964110031
2008.3543183745 9.476308456316086E-5 -0.004709219101766095 0.9999052369154369 0.004709219101766095 0.9999052369154369 0.004709219101766095 9.476308456316086E-5 -0.004709219101766095
2100.321183246434 8.93474795859354E-5 -0.004505342534514011 0.999910652520414 0.004505342534514011 0.999910652520414 0.004505342534514011 8.93474795859354E-5 -0.004505342534514011
2196.4994087119585 8.420682686202773E-5 -0.0043102548552126805 0.999915793173138 0.0043102548552126805 0.999915793173138 0.0043102548552126805 8.420682686202773E-5 -0.0043102548552126805
2297.0818420326846 7.932971032280692E-5 -0.004123572138734004 0.9999206702896773 0.004123572138734004 0.9999206702896773 0.004123572138734004 7.932971032280692E-5 -0.004123572138734004
2402.270161361206 7.470583998701791E-5 -0.003944928123527129 0.9999252941600127 0.003944928123527129 0.9999252941600127 0.003944928123527129 7.470583998701791E-5 -0.003944928123527129
2512.2752801266033 7.032580206236497E-5 -0.0037739734028128693 0.9999296741979375 0.0037739734028128693 0.9999296741979375 0.0037739734028128693 7.032580206236497E-5 -0.0037739734028128693
2627.3177699376165 6.618084037707994E-5 -0.0036103746288015668 0.9999338191596229 0.0036103746288015668 0.9999338191596229 0.0036103746288015668 6.618084037707994E-5 -0.0036103746288015668
2747.6283028514745 6.22626702521212E-5 -0.003453813733713744 0.9999377373297479 0.003453813733713744 0.9999377373297479 0.003453813733713744 6.22626702521212E-5 -0.003453813733713744
2873.4481138951564 5.856332485331729E-5 -0.0033039871714874184 0.9999414366751467 0.0033039871714874184 0.9999414366751467 0.0033039871714874184 5.856332485331729E-5 -0.0033039871714874184
3005.0294847665045 5.50750330524671E-5 -0.0031606051838978214 0.9999449249669475 0.0031606051838978214 0.9999449249669475 0.0031606051838978214 5.50750330524671E-5 -0.0031606051838978214
3142.6362496850466 5.1790126938389633E-5 -0.0030233910944328485 0.9999482098730615 0.0030233910944328485 0.9999482098730615 0.0030233910944328485 5.1790126938389633E-5 -0.0030233910944328485
3286.544324406816 4.870097639782401E-5 -0.0028920806327120984 0.9999512990236022 0.0028920806327120984 0.9999512990236022 0.0028920806327120984 4.870097639782401E-5 -0.0028920806327120984
3437.0422594639017 4.5799947657958365E-5 -0.0027664212915667237 0.9999542000523419 0.0027664212915667237 0.9999542000523419 0.0027664212915667237 4.5799947657958365E-5 -0.0027664212915667237
3594.431818738024 4.307938235500882E-5 -0.0026461717181699334 0.999956920617645 0.0026461717181699334 0.999956920617645 0.0026461717181699334 4.307938235500882E-5 -0.0026461717181699334
3759.0285845282415 4.0531593558398804E-5 -0.0025311011398776277 0.9999594684064417 0.0025311011398776277 0.9999594684064417 0.0025311011398776277 4.0531593558398804E-5 -0.0025311011398776277
3931.162590326006 3.814887521683661E-5 -0.002420988824749928 0.9999618511247834 0.002420988824749928 0.9999618511247834 0.002420988824749928 3.814887521683661E-5 -0.002420988824749928
4111.17898256636 3.592352167155735E-5 -0.0023156235761117605 0.9999640764783285 0.0023156235761117605 0.9999640764783285 0.0023156235761117605 3.592352167155735E-5 -0.0023156235761117605
4299.438712682125 3.384785416935966E-5 -0.002214803259996476 0.9999661521458307 0.002214803259996476 0.9999661521458307 0.002214803259996476 3.384785416935966E-5 -0.002214803259996476
4496.31926084876 3.191425166920585E-5 -0.0021183343639121902 0.9999680857483308 0.0021183343639121902 0.9999680857483308 0.0021183343639121902 3.191425166920585E-5 -0.0021183343639121902
4702.215392871039 3.0115183638565904E-5 -0.0020260315850782733 0.9999698848163616 0.0020260315850782733 0.9999698848163616 0.0020260315850782733 3.0115183638565904E-5 -0.0020260315850782733
4917.539951729213 2.8443242951004287E-5 -0.0019377174460931369 0.999971556757049 0.0019377174460931369 0.999971556757049 0.0019377174460931369 2.8443242951004287E-5 -0.0019377174460931369
5142.724685371758 2.689117740169576E-5 -0.0018532219359034046 0.9999731088225984 0.0018532219359034046 0.9999731088225984 0.0018532219359034046 2.689117740169576E-5 -0.0018532219359034046
5378.221112414543 2.545191873530317E-5 -0.0017723821739340075 0.9999745480812646 0.0017723821739340075 0.9999745480812646 0.0017723821739340075 2.545191873530317E-5 -0.0017723821739340075
5624.501427482224 2.4118608419219216E-5 -0.0016950420952930054 0.9999758813915808 0.0016950420952930054 0.9999758813915808 0.0016950420952930054 2.4118608419219216E-5 -0.0016950420952930054
5882.059448007167 2.2884619687808283E-5 -0.0016210521550679665 0.999977115380312 0.0016210521550679665 0.999977115380312 0.0016210521550679665 2.2884619687808283E-5 -0.0016210521550679665
6151.41160438433 2.17435756273925E-5 -0.0015502690498677852 0.9999782564243725 0.0015502690498677852 0.9999782564243725 0.0015502690498677852 2.17435756273925E-5 -0.0015502690498677852
6433.097975467465 2.0689363267960243E-5 -0.001482555454921674 0.9999793106367323 0.001482555454921674 0.9999793106367323 0.001482555454921674 2.0689363267960243E-5 -0.001482555454921674
6727.683371482931 1.9716143798935862E-5 -0.001417779775214964 0.9999802838562009 0.001417779775214964 0.9999802838562009 0.001417779775214964 1.9716143798935862E-5 -0.001417779775214964
7035.758466532445 1.8818359137357743E-5 -0.001355815909310374 0.9999811816408626 0.001355815909310374 0.9999811816408626 0.001355815909310374 1.8818359137357743E-5 -0.001355815909310374
7357.940982955574 1.7990735152832204E-5 -0.001296543024667105 0.9999820092648473 0.001296543024667105 0.9999820092648473 0.001296543024667105 1.7990735152832204E-5 -0.001296543024667105
7694.876929926739 1.7228281900321237E-5 -0.0012398453434237949 0.9999827717180996 0.0012398453434237949 0.9999827717180996 0.0012398453434237949 1.7228281900321237E-5 -0.0012398453434237949
8047.241898770236 1.6526291234728927E-5 -0.0011856119377521121 0.9999834737087655 0.0011856119377521121 0.9999834737087655 0.0011856119377521121 1.6526291234728927E-5 -0.0011856119377521121
8415.742417590522 1.5880332185541868E-5 -0.0011337365340138236 0.9999841196678143 0.0011337365340138236 0.9999841196678143 0.0011337365340138236 1.5880332185541868E-5 -0.0011337365340138236
8801.117367933934 1.5286244460065786E-5 -0.0010841173250652238 0.99998471375554 0.0010841173250652238 0.99998471375554 0.0010841173250652238 1.5286244460065786E-5 -0.0010841173250652238
9204.139466322391 1.4740130424062143E-5 -0.0010366567901487786 0.999985259869576 0.0010366567901487786 0.999985259869576 0.0010366567901487786 1.4740130424062143E-5 -0.0010366567901487786
9625.61681362972 1.4238345882153639E-5 -9.912615218938417E-4 0.999985761654118 9.912615218938417E-4 0.999985761654118 9.912615218938417E-4 1.4238345882153639E-5 -9.912615218938417E-4
10066.394515407255 1.377748994992881E-5 -9.478420600171756E-4 0.9999862225100501 9.478420600171756E-4 0.9999862225100501 9.478420600171756E-4 1.377748994992881E-5 -9.478420600171756E-4
10527.356376407623 1.3354394277357761E-5 -9.063127313713143E-4 0.9999866456057227 9.063127313713143E-4 0.9999866456057227 9.063127313713143E-4 1.3354394277357761E-5 -9.063127313713143E-4
11009.426672704432 1.2966111850542436E-5 -8.665914960358261E-4 0.9999870338881492 8.665914960358261E-4 0.9999870338881492 8.665914960358261E-4 1.2966111850542436E-5 -8.665914960358261E-4
