# HZ S RI R 50
+0.000000000000e+000  +1.000000000000e+000 -0.000000000000e+000  -3.880690000000e-044 -4.752474586983e-060  +4.663410000000e-033 +0.000000000000e+000  +7.228370000000e-030 +0.000000000000e+000
                      -5.003320000000e-030 -6.127299823110e-046
                      -4.526580000000e-047 +5.543461708084e-063  -1.000000000000e+000 -1.224646799147e-016  +1.602150000000e-041 +0.000000000000e+000  -6.602120000000e-042 -8.085265125587e-058
                      +5.815700000000e-042 +0.000000000000e+000
                      -6.522910000000e-034 +7.988260852626e-050  +1.425500000000e-041 -0.000000000000e+000  -1.000000000000e+000 -1.224646799147e-016  -1.695680000000e-028 -2.076609084378e-044
                      -7.327020000000e-029 -8.973011590289e-045
                      +2.436100000000e-032 -0.000000000000e+000  -8.387240000000e-041 +1.027140661968e-056  -2.559520000000e-028 +3.134507975354e-044  -1.000000000000e+000 -1.224646799147e-016
                      -6.360780000000e-027 -7.789708867081e-043
                      +4.261720000000e-031 -0.000000000000e+000  +1.097380000000e-040 -0.000000000000e+000  +2.467000000000e-028 -0.000000000000e+000  +2.779700000000e-027 -0.000000000000e+000
                      -1.000000000000e+000 -1.224646799147e-016

+2.500000000000e+006  +9.999674627842e-001 -8.066806857808e-003  +1.584509520885e-020 +3.045176865261e-020  -5.490413237403e-012 -1.731858137651e-012  -1.373361997036e-008 -2.056914375869e-009
                      -1.480940845857e-010 -5.874525096310e-011
                      -9.340507147707e-023 +3.727042624341e-024  -9.999996635501e-001 +8.203046564406e-004  +3.436316354222e-021 -5.180345598144e-021  -5.711767950544e-020 +2.995918070173e-019
                      -4.871658461084e-022 +8.410817122667e-022
                      -2.322802679762e-012 +2.525776096163e-014  +4.564189335072e-021 -2.267480688698e-021  -9.999360456452e-001 +1.130949244966e-002  +3.023162240458e-011 -1.675220015126e-010
                      +3.695640475942e-012 -6.530134207057e-012
                      -1.607529503530e-009 +1.447125985584e-010  -2.423411648120e-018 +1.443153182672e-018  +8.259573888479e-011 -1.566633860450e-010  -9.964753119476e-001 +8.388654647193e-002
                      +9.851916895542e-009 -2.069204452859e-008
                      -2.658614471759e-011 +6.389639684317e-012  +1.837169081766e-019 -9.761739256417e-020  -4.172879384064e-012 +5.750437744003e-012  -1.603294809701e-009 +8.196289978404e-009
                      -9.998724860504e-001 +1.596908386081e-002

+5.000000000000e+006  +9.998697310218e-001 -1.614066251541e-002  +9.101417713605e-019 +6.380933533777e-019  -6.594035925945e-011 +1.690730044375e-011  -6.301394006027e-008 +9.528314952331e-008
                      -1.635128071051e-009 +4.908730178581e-010
                      -7.193556371244e-021 +1.588481345142e-022  -9.999986542005e-001 +1.640608760898e-003  -3.902406022001e-020 -9.214948674814e-020  +4.566086843569e-018 +1.765826137135e-018
                      +8.050472569707e-021 +1.270908548615e-020
                      -3.930659758389e-011 +1.462603438477e-012  +4.943199955433e-020 -6.539189042190e-020  -9.997441907611e-001 +2.261753831673e-002  -5.197637991190e-010 -4.729652504681e-010
                      -1.213691249363e-011 -3.002482401501e-011
                      -2.966103056132e-008 +3.666617007598e-009  -2.133717239786e-017 +3.966722603490e-017  -2.535210042983e-010 -7.933344493614e-010  -9.859202582976e-001 +1.672161603388e-001
                      -5.206965766965e-008 -8.043817381272e-008
                      -8.796535058988e-010 +1.714494211013e-010  +1.855178078107e-018 -2.763035327934e-018  +1.257834770515e-011 +2.302144517550e-011  +3.581114235685e-008 +1.694291750919e-009
                      -9.994894192140e-001 +3.195153954578e-002

+7.500000000000e+006  +9.997064369313e-001 -2.422890748748e-002  +8.549815074231e-018 +1.167133920576e-018  -2.109775666719e-010 +1.254985206495e-010  +1.418410262678e-007 +1.942682006616e-007
                      -4.355621832436e-009 +3.647810785897e-009
                      -8.901141811811e-020 -7.985421734623e-022  -9.999970147508e-001 +2.443458521344e-003  -5.025076556181e-019 -9.325222578695e-020  +1.323862695543e-017 -2.132860535935e-017
                      +7.678763798832e-020 -3.793803087327e-021
                      -2.152397719824e-010 +7.798443302705e-012  +7.660166589496e-020 -4.112303748486e-019  -9.994232751534e-001 +3.395757767789e-002  -7.930384020072e-010 +2.345473874462e-010
                      -6.154552082869e-011 -2.281035127931e-011
                      -1.526888518785e-007 +1.592431477377e-008  +1.031622176933e-017 +2.274611804098e-016  -1.392579058779e-009 -1.003473216708e-009  -9.683952803127e-001 +2.494164811495e-001
                      -1.961958747090e-007 -2.592318683075e-009
                      -4.663373405191e-009 -3.109671954618e-010  +1.712545462583e-018 -1.676857721092e-017  +6.975506681609e-011 -5.639942621424e-012  +3.603686797915e-008 -1.111079915319e-007
                      -9.988508972447e-001 +4.792582887638e-002

+1.000000000000e+007  +9.994769415694e-001 -3.233950016696e-002  +3.572133358679e-017 -1.289513197068e-017  -4.518164040037e-010 +1.990958304867e-010  +4.219555575277e-008 -5.404382610102e-007
                      -6.756420397604e-009 +5.744270316876e-009
                      -5.614289344091e-019 +1.561348533528e-020  -9.999946739215e-001 +3.263759906870e-003  -1.131125246134e-018 +1.176398911067e-018  -5.879885682409e-017 -5.478287478164e-017
                      +1.242198024817e-019 -2.254616432132e-019
                      -7.441003028548e-010 +2.932683030022e-011  -3.677955989968e-019 -1.283585702226e-018  -9.989713613721e-001 +4.534555279677e-002  +1.466117101302e-009 -9.921051441180e-011
                      -6.394345370607e-011 +5.126502336281e-011
                      -4.914477597058e-007 +8.908083641341e-008  +3.968417486617e-016 +5.995033703993e-016  -1.700173804735e-009 +2.893458296327e-011  -9.439884206144e-001 +3.299513022053e-001
                      -1.154889232767e-007 +2.529024578299e-007
                      -1.325802303219e-008 -1.124612281356e-010  -2.016566187699e-017 -4.939965790846e-017  +8.831673845392e-011 -1.314266945672e-010  -1.351901629918e-007 -1.688354717210e-007
                      -9.979570833396e-001 +6.388786905383e-002

+1.250000000000e+007  +9.991802761449e-001 -4.048179545078e-002  +8.478561872754e-017 -9.255223468932e-017  -1.400513431468e-009 -2.983526300819e-010  -2.444917733457e-006 -1.057503791496e-006
                      -2.131003353543e-008 -7.775598832815e-009
                      -2.632210048375e-018 +1.018554546152e-019  -9.999916601959e-001 +4.084059096212e-003  +9.058990276470e-019 +3.932270454153e-018  -1.594367382499e-016 +1.161950847551e-016
                      -3.048923399915e-019 -5.917059568194e-019
                      -2.103268684140e-009 +1.366020948409e-010  -2.226900156823e-018 -2.431171976217e-018  -9.983867193767e-001 +5.677991345678e-002  +3.249653987049e-009 -5.254230555092e-009
                      +7.807152769234e-011 +9.385548086171e-011
                      -1.367803741243e-006 +3.213696126603e-007  +1.581683643360e-015 +7.546277245958e-016  +1.133749272672e-009 +3.159491877115e-010  -9.128561142649e-001 +4.082446752551e-001
                      +3.668407069974e-007 +2.387109645359e-007
                      -4.037335118325e-008 +5.219938945430e-009  -1.004176628453e-016 -8.351648860968e-017  -3.742612573143e-011 -2.639670008954e-010  -1.917100459942e-007 +3.126661660467e-008
                      -9.968054186199e-001 +7.986837553178e-002

+1.500000000000e+007  +9.988139465297e-001 -4.866929441389e-002  +9.601970589770e-017 -3.415849631575e-016  -5.530596851455e-009 -1.703758607632e-009  -6.228075872256e-006 +2.263264978525e-006
                      -1.009642049252e-007 -4.645542643039e-008
                      -1.035445243704e-017 +5.017073739116e-019  -9.999879735761e-001 +4.904355537390e-003  +8.014813886583e-018 +2.913067223314e-018  +1.799572101368e-016 +3.705447006014e-016
                      -1.388792373306e-018 -2.167838000124e-019
                      -5.574843216721e-009 +3.875822480159e-010  -6.455482553286e-018 -2.487727819078e-018  -9.976664382843e-001 +6.827648146483e-002  -8.702045899208e-010 -1.106934759693e-008
                      +2.922711527787e-010 -7.151343022399e-011
                      -3.378605983283e-006 +7.169123228271e-007  +3.606393405978e-015 -3.506482016423e-016  +6.163632429686e-009 -4.313754100563e-009  -8.751874731155e-001 +4.837673893162e-001
                      +7.240396781633e-007 -4.739679602349e-007
                      -1.124255099267e-007 +3.091236276996e-009  -2.660092150302e-016 -5.520407455979e-017  -2.405519963187e-010 -2.070534934916e-010  +1.949094872028e-007 +6.358201099648e-008
                      -9.953961983672e-001 +9.584575252022e-002

+1.750000000000e+007  +9.983774157051e-001 -5.692570430845e-002  -1.670283074770e-016 -9.340087380626e-016  -1.907103173952e-008 -1.913627610114e-009  -6.571479514947e-006 +7.460177536911e-006
                      -3.703592130457e-007 -7.132664675383e-008
                      -3.998791670511e-017 +3.617371839530e-018  -9.999836140645e-001 +5.724648678429e-003  +1.297728851164e-017 -9.777383892213e-018  +7.487115437806e-016 -2.185995998410e-016
                      -1.867969541761e-018 +1.749911643242e-018
                      -1.475411499123e-008 +7.102395832149e-010  -1.291125296529e-017 +1.204332244951e-018  -9.968054186199e-001 +7.986837553178e-002  -4.973184297204e-009 -9.333540785042e-009
                      +3.259876641776e-010 -4.352291132037e-010
                      -8.104524098719e-006 +1.595186363306e-006  +5.356934463612e-015 -3.991365344412e-015  +8.228654584600e-009 -1.497331415844e-008  -8.311752777316e-001 +5.560032892922e-001
                      +1.891642457225e-007 -1.397949628649e-006
                      -2.707549894127e-007 -1.229491212462e-008  -4.850024925907e-016 +1.415949652417e-016  -2.259303130272e-010 +8.553872349080e-011  +4.801501759623e-007 -5.741330162361e-007
                      -9.937289486200e-001 +1.118158158520e-001

+2.000000000000e+007  +9.978516436142e-001 -6.534598271916e-002  -1.765637778191e-015 -2.454522396766e-015  -6.529591286603e-008 +1.248657278044e-008  -1.373085190593e-005 +4.295620135379e-006
                      -1.286544819719e-006 +1.470382033829e-007
                      -1.861266322942e-016 +3.058615503481e-017  -9.999786957425e-001 +6.527485047656e-003  -1.747479835349e-018 -2.856449745112e-017  -1.647989859401e-016 -1.379833549321e-015
                      +3.446470738683e-019 +4.456412825679e-018
                      -4.944388645383e-008 +3.696877053836e-009  -1.910468044521e-017 +1.185463822840e-017  -9.958017329590e-001 +9.153637875704e-002  +3.682551148157e-009 -5.901745187451e-009
                      +7.200692852270e-011 -5.943026396086e-010
                      -2.630602076164e-005 +5.283682205444e-006  +4.173076206808e-015 -1.045083466581e-014  +4.211351584109e-009 -2.407859096054e-008  -7.810589560823e-001 +6.244044428194e-001
                      -9.658658296986e-007 -1.332576766652e-006
                      -9.084512466220e-007 +1.165440632795e-008  -6.234706695558e-016 +6.058754357355e-016  +2.733935180761e-010 +3.884315696207e-010  -3.858009102727e-008 -1.207433799045e-006
                      -9.918010328807e-001 +1.277916709994e-001

+2.250000000000e+007  +9.967243319742e-001 -7.126808831160e-002  +1.427854329219e-014 +2.273840279116e-014  +5.863213245364e-007 -5.899118148657e-009  +2.279454958395e-004 +1.109239150520e-004
                      +1.119275948454e-005 +7.293883542236e-007
                      +2.503362010404e-015 +3.475309508007e-016  -9.999730047734e-001 +7.347770031943e-003  -4.070324967257e-017 -2.450631738006e-017  -2.327136834190e-015 -4.716428282686e-016
                      +3.350659442527e-018 -1.125973075123e-017
                      +5.079087323702e-007 +1.587805963683e-007  -1.262258197685e-017 +2.653646381110e-017  -9.946488587215e-001 +1.033133478500e-001  +4.868256594428e-008 -8.310066295362e-008
                      -8.285533070085e-012 -3.477840130374e-009
                      +2.729214501780e-004 +6.210291810183e-005  -1.339834113368e-018 -2.020179995557e-014  -1.182846768017e-008 -1.135968303842e-007  -7.251991961823e-001 +6.883808086645e-001
                      -1.304155384148e-006 -1.777667375101e-006
                      +9.505605238983e-006 +4.011767103239e-006  -3.043953878203e-016 +1.261494644409e-015  +1.277564539591e-009 -3.043785128435e-009  +8.713173216460e-008 -2.050669747095e-006
                      -9.896112775334e-001 +1.437689791950e-001

+2.500000000000e+007  +9.966701386840e-001 -8.149008940693e-002  +2.828558432240e-015 +1.957381833931e-015  +6.585376873478e-008 -2.219333895195e-008  +4.311921672567e-005 -1.367626328516e-006
                      +1.264923966152e-006 -3.139813942813e-007
                      +5.245938188943e-016 -1.495275336582e-016  -9.999666409226e-001 +8.168050071917e-003  -6.496355700255e-017 +3.173960031784e-017  -1.328808321473e-015 +3.631139398919e-015
                      +1.885823504950e-018 -1.000522741711e-017
                      +9.318962842136e-008 -1.825160524278e-009  -3.155776991893e-018 +5.142856804994e-017  -9.933386193363e-001 +1.152318850621e-001  +1.305895660027e-008 -8.547335528428e-008
                      -2.013146079505e-010 -8.776482342640e-010
                      +4.522723340564e-005 -5.856984077285e-006  -1.794171835662e-014 -2.204660127030e-014  -1.577044411795e-008 -5.293464651372e-008  -6.639969528230e-001 +7.476149107273e-001
                      +7.199088167338e-008 +5.773872489975e-008
                      +1.765862269913e-006 +1.405899932366e-007  +3.884970212974e-016 +2.054745333841e-015  +1.119984918218e-009 -1.889265345859e-009  +9.471125960319e-008 -1.207380952891e-006
                      -9.871557908778e-001 +1.597605850530e-001

+2.750000000000e+007  +9.959297777733e-001 -9.008816659497e-002  +1.405758287845e-015 +2.218576849842e-015  +4.563216509146e-008 +6.620301131777e-009  +3.097406571414e-005 +4.630000472566e-006
                      +8.238045624788e-007 +1.934051706861e-007
                      +4.597501710030e-016 -1.627600207752e-016  -9.999596041944e-001 +8.988324615610e-003  -9.696708338459e-018 +1.052100954443e-016  +4.540208484429e-015 +3.114254120575e-015
                      -1.764390889259e-017 -2.177908472893e-017
                      +7.032461574029e-008 -2.046953917499e-009  +3.156737124033e-017 +6.794676006893e-017  -9.918678084862e-001 +1.272723476993e-001  -2.249228717803e-008 -1.091771858838e-007
                      +8.469572625764e-010 -9.437504544471e-010
                      +3.047196429321e-005 -5.075696932768e-006  -3.912374806046e-014 -1.330433439529e-014  -1.027868705709e-009 -6.460512381239e-008  -5.977741693264e-001 +8.015959365610e-001
                      +2.058712302946e-006 -1.729909244613e-006
                      +1.305803024932e-006 +3.454920663540e-008  +1.918675675810e-015 +2.414319330154e-015  +6.460206621079e-010 -2.976142302819e-009  +8.615078179232e-007 -2.712695272926e-006
                      -9.844388385865e-001 +1.757275535666e-001

+3.000000000000e+007  +9.951124324638e-001 -9.871801641488e-002  +1.730724533234e-015 +4.206260348357e-015  +6.077865246720e-008 +2.354959334090e-008  +3.942493867154e-005 +7.567083883187e-007
                      +1.044650188656e-006 +5.040345181042e-007
                      +4.336327872061e-016 -2.566019476716e-016  -9.999518945935e-001 +9.808593111062e-003  +1.289535114582e-016 +8.664172973567e-017  +4.487349922169e-015 -5.294578852035e-015
                      -7.075524324904e-017 -1.231695600622e-017
                      +6.557227461703e-008 -3.116649681766e-009  +8.572164319381e-017 +6.030006238930e-017  -9.902267316630e-001 +1.394669132804e-001  -4.101351779313e-008 -1.089126392997e-007
                      +1.989794571722e-009 -2.409920664824e-009
                      +2.285176789222e-005 -3.559962775080e-006  -5.706901120080e-014 +1.347161337083e-014  +1.504796367731e-008 -1.126382755113e-007  -5.268902973474e-001 +8.498532927425e-001
                      +1.645757311867e-006 -5.516468359679e-006
                      +1.151002422677e-006 +1.498776138883e-008  +4.016787003042e-015 +1.762886685040e-015  -2.493569181983e-010 -3.515878512043e-009  -3.812168844769e-007 -4.994352064221e-006
                      -9.814492790518e-001 +1.917167510934e-001

+3.250000000000e+007  +9.942100391623e-001 -1.074448604161e-001  +4.720671740703e-015 +6.783891625323e-015  +8.863519827395e-008 +1.720084394375e-008  +2.985596214943e-005 -2.305958227335e-005
                      +1.476521171788e-006 +3.637615677357e-007
                      +4.191641944068e-016 -4.334890888262e-016  -9.999436974814e-001 +1.061140269807e-002  +2.151565690988e-016 -1.106922594161e-016  -9.607078542133e-015 -5.883305112375e-015
                      -1.498378262551e-016 +7.357024838982e-017
                      +6.798088469099e-008 -3.898908999979e-009  +1.441064384965e-016 +8.619679799446e-018  -9.884039527933e-001 +1.518473776611e-001  -2.092324913725e-008 -1.390213012978e-007
                      +1.987332899855e-009 -5.042015644239e-009
                      +1.751901184329e-005 -2.245231686204e-006  -5.734916657655e-014 +5.823072174604e-014  -1.371444202678e-009 -1.976772426578e-007  -4.518949364195e-001 +8.918906840860e-001
                      -2.035537369587e-006 -7.923875500001e-006
                      +1.038288296991e-006 -2.624722332490e-008  +6.042858440052e-015 -4.354855157036e-016  -5.501687007412e-010 -3.450666234689e-009  -2.879778381618e-006 -5.170754532248e-006
                      -9.781937710272e-001 +2.076895431276e-001

+3.500000000000e+007  +9.932063314955e-001 -1.163064191103e-001  +1.156958223859e-014 +8.012473092906e-015  +1.070405107984e-007 -1.404488561781e-008  -1.443183130784e-005 -2.042283770347e-005
                      +1.609309666215e-006 -2.625759820046e-007
                      +4.902283071735e-017 -5.520867695838e-016  -9.999346564674e-001 +1.143165759909e-002  +4.255780168227e-017 -3.879668026416e-016  -1.713184388178e-014 +1.950626092233e-014
                      -1.761789351116e-016 +3.017479495340e-016
                      +7.331904550269e-008 -4.275505529711e-009  +1.742195265928e-016 -9.939563267465e-017  -9.863948483292e-001 +1.643934402268e-001  -2.805192941685e-008 -2.471058427172e-007
                      +2.490738890956e-010 -7.501125906514e-009
                      +1.367684739235e-005 +2.234005599022e-006  -2.429097342930e-014 +1.098052831600e-013  -7.827257025487e-008 -2.889677973524e-007  -3.734023390835e-001 +9.274172458624e-001
                      -5.855958088917e-006 -6.366745239983e-006
                      +9.939666917357e-007 -5.750931542750e-008  +6.919159478209e-015 -4.315028560173e-015  +2.808978169063e-010 -3.912980669382e-009  -3.077450481875e-006 -3.626879746629e-006
                      -9.746675938884e-001 +2.236584034275e-001

+3.750000000000e+007  +9.920985366004e-001 -1.253494869211e-001  +2.229098531046e-014 +4.825916353269e-015  +9.694567585245e-008 -5.064664665613e-008  -3.287929611641e-005 +3.972306304817e-005
                      +9.511999930219e-007 -8.928458105268e-007
                      -1.822296640550e-015 -9.183934687486e-016  -9.999249425975e-001 +1.225190480775e-002  -4.270630349169e-016 -4.340669613880e-016  +1.676600659871e-014 +5.075395427927e-014
                      +2.608858874310e-017 +6.650344830559e-016
