!
! FCI USA LLC
! FCI_CC_Long_Link_Pair_14_to_Pair_9_NEXT.s4p
! 
! PART DESCRIPTION: FCI Connector Concept 0.70 m Simulated Channel Model
!
! FREQUENCY RANGE: 50 MHz to 30 GHz in 50 MHz frequency steps
! 
! PORT DEFINITIONS: 
! Port   1  ----->  TX   Pin E4(Side B) -- Pin A5(Side B)    RX  <-----  Port   2
! Port   3  ----->  TX   Pin F4(Side B) -- Pin B5(Side B)    RX  <-----  Port   4
! 
! Information
!
! FCI endeavors to use its reasonable efforts to place accurate and
! up-to-date information in this Touchstone file.  However, this file is
! provided on an as is basis.  FCI GIVES NO WARRANTY, EXPRESS OR 
! IMPLIED, WITH RESPECT TO ANY INFORMATION PROVIDED IN THIS FILE,
! INCLUDING BUT NOT LIMITED TO THE IMPLIED WARRANTIES OF 
! MERCHANTABILITY, FITNESS FOR A PARTICULAR PURPOSE OR NON-INFRINGEMENT.
! FCI SHALL NOT BE LIABLE FOR ANY DIRECT, SPECIAL, INDIRECT, 
! CONSEQUENTIAL, PUNITIVE OR OTHER DAMAGES BASED ON USE OF THIS FILE.
!
! -----------------------------------------------------------------------------
!
#	Hz	S	RI	R	50
5e+007	0.06458608	0.07276384	0.0001912922	1.139775e-005	0.04544459	0.07487739	0.0002772125	0.0001499187	
0.0001912922	1.139775e-005	0.06212921	0.07108721	0.000130278	0.0004970743	0.04386693	0.0731204	
0.04544459	0.07487739	0.000130278	0.0004970743	0.06551377	0.07399505	0.0001639041	0.0003086603	
0.0002772125	0.0001499187	0.04386693	0.0731204	0.0001639041	0.0003086603	0.0632469	0.07229349	

1e+008	0.01102422	-0.02009288	-2.278909e-006	0.0002177064	0.01250857	-0.006777392	-0.0001449838	0.0003872737	
-2.278909e-006	0.0002177064	0.01119173	-0.02334539	7.763595e-005	0.0003737502	0.01311699	-0.009981964	
0.01250857	-0.006777392	7.763595e-005	0.0003737502	0.01131235	-0.01693403	7.752474e-005	0.0003393942	
-0.0001449838	0.0003872737	0.01311699	-0.009981964	7.752474e-005	0.0003393942	0.01230426	-0.02647923	

1.5e+008	0.1609684	0.009940876	0.0004654785	2.444905e-005	0.1628592	0.02818633	0.0006834046	3.847902e-006	
0.0004654785	2.444905e-005	0.1554517	0.01183347	0.0004194733	-0.0004339031	0.1585578	0.03020907	
0.1628592	0.02818633	0.0004194733	-0.0004339031	0.1648203	0.01038318	0.0004718026	-0.0002351709	
0.0006834046	3.847902e-006	0.1585578	0.03020907	0.0004718026	-0.0002351709	0.1597151	0.01167609	

2e+008	0.02452948	-0.03685669	7.550794e-005	-0.0001169136	0.03007028	-0.04547581	0.0001970494	-0.0001427176	
7.550794e-005	-0.0001169136	0.02445899	-0.03615877	-8.993321e-005	8.347001e-005	0.03128851	-0.04590658	
0.03007028	-0.04547581	-8.993321e-005	8.347001e-005	0.0255523	-0.03762599	-5.931131e-005	-8.786458e-005	
0.0001970494	-0.0001427176	0.03128851	-0.04590658	-5.931131e-005	-8.786458e-005	0.02645778	-0.04288403	

2.5e+008	0.1467965	0.02987345	0.000674429	-0.0001289411	0.1482259	0.04150234	0.000922219	-0.0002612756	
0.000674429	-0.0001289411	0.1413495	0.03357953	0.000258078	-6.177057e-005	0.1429493	0.04441586	
0.1482259	0.04150234	0.000258078	-6.177057e-005	0.1516633	0.03064388	0.0004574242	-9.069832e-005	
0.000922219	-0.0002612756	0.1429493	0.04441586	0.0004574242	-9.069832e-005	0.1410869	0.03144016	

3e+008	0.04144131	-0.04970204	0.0002374548	-0.001001083	0.05717045	-0.08399855	0.0003577778	-0.001388024	
0.0002374548	-0.001001083	0.04082467	-0.0442936	0.0005320049	-0.0006042368	0.05875478	-0.07959126	
0.05717045	-0.08399855	0.0005320049	-0.0006042368	0.044636	-0.05612521	0.0003169899	-0.0007120824	
0.0003577778	-0.001388024	0.05875478	-0.07959126	0.0003169899	-0.0007120824	0.0422894	-0.0510028	

3.5e+008	0.1334827	0.04696903	-0.0003263703	-0.00040724	0.09707033	0.03644318	-0.0006372992	-0.0006434819	
-0.0003263703	-0.00040724	0.1347486	0.05445874	-0.0002838158	-0.0003647062	0.09661067	0.03989166	
0.09707033	0.03644318	-0.0002838158	-0.0003647062	0.1334366	0.0450888	-0.0002339798	-0.0004389252	
-0.0006372992	-0.0006434819	0.09661067	0.03989166	-0.0002339798	-0.0004389252	0.1286076	0.0494647	

4e+008	0.06221628	-0.0619503	-0.0002493186	-0.0005255573	0.06889929	-0.07926745	-0.0001326961	-0.0006892987	
-0.0002493186	-0.0005255573	0.06589371	-0.0602829	-0.0002367511	-0.0005993293	0.07216188	-0.07566204	
0.06889929	-0.07926745	-0.0002367511	-0.0005993293	0.0661985	-0.06957765	-0.0002349446	-0.0005389411	
-0.0001326961	-0.0006892987	0.07216188	-0.07566204	-0.0002349446	-0.0005389411	0.0633881	-0.06140352	

4.5e+008	0.1132528	0.05518261	-0.0008033232	-0.0007763877	0.05020915	0.02312447	-0.001486149	-0.001186525	
-0.0008033232	-0.0007763877	0.1176507	0.06604253	-0.000600015	-0.0003422096	0.0553112	0.02726108	
0.05020915	0.02312447	-0.000600015	-0.0003422096	0.1052334	0.04746074	-0.0008581825	-0.000620602	
-0.001486149	-0.001186525	0.0553112	0.02726108	-0.0008581825	-0.000620602	0.1101363	0.05981537	

5e+008	0.08426725	-0.06947533	-0.0009694401	0.0006542191	0.05075441	-0.03654564	-0.001157592	0.001003312	
-0.0009694401	0.0006542191	0.09977362	-0.07550484	-0.0006848554	0.0003911736	0.05890915	-0.04053503	
0.05075441	-0.03654564	-0.0006848554	0.0003911736	0.08088205	-0.07034368	-0.0007349378	0.0006525105	
-0.001157592	0.001003312	0.05890915	-0.04053503	-0.0007349378	0.0006525105	0.08995125	-0.06887987	

5.5e+008	0.0874419	0.05159524	-0.0004393472	-0.0005902909	0.0493784	0.0399876	-0.0008479394	-0.0006988513	
-0.0004393472	-0.0005902909	0.08537517	0.05494338	-0.0001991104	-0.0005037389	0.05044885	0.04143421	
0.0493784	0.0399876	-0.0001991104	-0.0005037389	0.07851857	0.04412818	-0.0004080995	-0.0004994695	
-0.0008479394	-0.0006988513	0.05044885	0.04143421	-0.0004080995	-0.0004994695	0.08402887	0.05502739	

6e+008	0.09971512	-0.06329508	-0.001874427	0.001625379	0.03896138	-0.0049418	-0.002448758	0.002413904	
-0.001874427	0.001625379	0.1233668	-0.0717691	-0.001571604	0.001119535	0.05167439	-0.01448499	
0.03896138	-0.0049418	-0.001571604	0.001119535	0.08683403	-0.05679037	-0.001561702	0.001501351	
-0.002448758	0.002413904	0.05167439	-0.01448499	-0.001561702	0.001501351	0.1106544	-0.06258877	

6.5e+008	0.06775376	0.04264555	0.001060615	0.0008007388	0.07827121	0.09035748	0.001464727	0.001226868	
0.001060615	0.0008007388	0.05546915	0.02789715	0.0007998041	0.0006385005	0.0667495	0.08407922	
0.07827121	0.09035748	0.0007998041	0.0006385005	0.06534915	0.04584642	0.0009813717	0.0006630957	
0.001464727	0.001226868	0.0667495	0.08407922	0.0009813717	0.0006630957	0.06274312	0.03881816	

7e+008	0.109236	-0.05017912	-0.001127251	0.0007975844	0.08429828	-0.0129262	-0.001356049	0.001168423	
-0.001127251	0.0007975844	0.1225527	-0.05116414	-0.000859034	0.0006281789	0.09506798	-0.01590164	
0.08429828	-0.0129262	-0.000859034	0.0006281789	0.09471115	-0.04154008	-0.0009743505	0.0007114107	
-0.001356049	0.001168423	0.09506798	-0.01590164	-0.0009743505	0.0007114107	0.1183463	-0.04771572	

7.5e+008	0.05782636	0.03796559	0.00218667	0.001418642	0.08980919	0.1157825	0.003190499	0.001931928	
0.00218667	0.001418642	0.0416651	0.01226674	0.001565979	0.0009181162	0.06987999	0.1009802	
0.08980919	0.1157825	0.001565979	0.0009181162	0.06282603	0.05691991	0.002105742	0.0009929038	
0.003190499	0.001931928	0.06987999	0.1009802	0.002105742	0.0009929038	0.0521277	0.02824219	

8e+008	0.121156	-0.0352815	0.000596693	-0.0005699186	0.1736252	-0.03150642	0.0009386087	-0.0009472524	
0.000596693	-0.0005699186	0.1115132	-0.02875729	0.000288055	-0.0003129422	0.1725477	-0.01983036	
0.1736252	-0.03150642	0.000288055	-0.0003129422	0.1228713	-0.03072529	0.000275201	-0.0005521726	
0.0009386087	-0.0009472524	0.1725477	-0.01983036	0.000275201	-0.0005521726	0.1224794	-0.0319176	

8.5e+008	0.04636248	0.03379002	0.001228603	0.001260421	0.06844173	0.05938342	0.001736659	0.001523017	
0.001228603	0.001260421	0.03434264	0.01676698	0.0009571927	0.001153049	0.05614067	0.04432819	
0.06844173	0.05938342	0.0009571927	0.001153049	0.05456406	0.05404664	0.001324969	0.001179852	
0.001736659	0.001523017	0.05614067	0.04432819	0.001324969	0.001179852	0.04087567	0.02334914	

9e+008	0.1379809	-0.02106405	0.001530962	-0.001254115	0.2182197	-0.03099884	0.002015961	-0.001828394	
0.001530962	-0.001254115	0.1169467	-0.01079868	0.001356547	-0.000934732	0.2073796	-0.01106732	
0.2182197	-0.03099884	0.001356547	-0.000934732	0.1592548	-0.02082563	0.00116346	-0.001312026	
0.002015961	-0.001828394	0.2073796	-0.01106732	0.00116346	-0.001312026	0.1343303	-0.01678529	

9.5e+008	0.03812208	0.005402572	3.712426e-005	-0.0007145219	0.04832567	-0.05523252	7.528569e-005	-0.001367019	
3.712426e-005	-0.0007145219	0.03005328	0.0132365	2.761783e-005	-0.000524816	0.05340757	-0.05694295	
0.04832567	-0.05523252	2.761783e-005	-0.000524816	0.04555228	0.007074654	-5.828354e-005	-0.0007012906	
7.528569e-005	-0.001367019	0.05340757	-0.05694295	-5.828354e-005	-0.0007012906	0.03320436	0.001132951	

1e+009	0.1487884	-0.00483778	0.001097357	-0.00136988	0.1670832	-0.01949405	0.001197564	-0.001755359	
0.001097357	-0.00136988	0.1389078	0.01194094	0.0007161678	-0.001160186	0.1576382	-0.004051069	
0.1670832	-0.01949405	0.0007161678	-0.001160186	0.1738289	-0.008146703	0.0006716316	-0.001239902	
0.001197564	-0.001755359	0.1576382	-0.004051069	0.0006716316	-0.001239902	0.1459568	0.005153152	

1.05e+009	0.04278752	-0.03299376	-0.0005433629	-0.001876058	0.0467541	-0.1174416	-0.0008281515	-0.002792289	
-0.0005433629	-0.001876058	0.039373	-0.01370622	-0.0002864683	-0.001112846	0.05971162	-0.1070442	
0.0467541	-0.1174416	-0.0002864683	-0.001112846	0.05147763	-0.05711019	-0.0005973024	-0.001324545	
-0.0008281515	-0.002792289	0.05971162	-0.1070442	-0.0005973024	-0.001324545	0.04102359	-0.03366304	

1.1e+009	0.1266493	0.01164083	-0.001438252	-0.0007033009	0.05964794	-0.01441822	-0.002474328	-0.0007019293	
-0.001438252	-0.0007033009	0.1412271	0.03572853	-0.0008190903	-0.0006085266	0.06501831	-0.01087458	
0.05964794	-0.01441822	-0.0008190903	-0.0006085266	0.1313524	0.001736774	-0.001110688	-0.0004240965	
-0.002474328	-0.0007019293	0.06501831	-0.01087458	-0.001110688	-0.0004240965	0.127474	0.02550565	

1.15e+009	0.05010395	-0.04925264	-0.000631107	-0.0005863598	0.03185441	-0.06966239	-0.0009065196	-0.000736479	
-0.000631107	-0.0005863598	0.06236455	-0.04642561	-0.0002951197	-0.0007823641	0.04250212	-0.06667871	
0.03185441	-0.06966239	-0.0002951197	-0.0007823641	0.05444759	-0.07893366	-0.0005457174	-0.0007122307	
-0.0009065196	-0.000736479	0.04250212	-0.06667871	-0.0005457174	-0.0007122307	0.05766029	-0.05351719	

1.2e+009	0.090052	0.017444	-0.002407751	-0.0004372771	0.005641041	-0.004318012	-0.003638037	-0.0001709424	
-0.002407751	-0.0004372771	0.113672	0.03985889	-0.002098623	-0.0004438567	0.02092333	-0.005085978	
0.005641041	-0.004318012	-0.002098623	-0.0004438567	0.06630349	-0.0003537357	-0.002368868	-5.055156e-005	
-0.003638037	-0.0001709424	0.02092333	-0.005085978	-0.002368868	-5.055156e-005	0.09138682	0.02886407	

1.25e+009	0.05111455	-0.0271031	-0.0004931148	0.002019202	0.003158498	0.02777543	-0.0003923577	0.003244923	
-0.0004931148	0.002019202	0.08280692	-0.05288216	-0.000540371	0.001424453	0.009085931	0.00942288	
0.003158498	0.02777543	-0.000540371	0.001424453	0.03980419	-0.03550353	-0.0001835365	0.002028362	
-0.0003923577	0.003244923	0.009085931	0.00942288	-0.0001835365	0.002028362	0.06713699	-0.03649696	

1.3e+009	0.08253206	0.02654741	-0.001003645	-0.0004124136	0.05511094	0.04358139	-0.001088976	-0.0001978427	
-0.001003645	-0.0004124136	0.08616208	0.02845973	-0.0007507244	-0.0001655216	0.05644336	0.0459186	
0.05511094	0.04358139	-0.0007507244	-0.0001655216	0.05048025	0.01262235	-0.000636555	-0.0001928866	
-0.001088976	-0.0001978427	0.05644336	0.0459186	-0.000636555	-0.0001928866	0.07849086	0.02780281	

1.35e+009	0.04903082	-0.0003272823	-0.0006438638	0.003578189	0.007909108	0.06641834	-0.0002698944	0.005118921	
-0.0006438638	0.003578189	0.08398513	-0.03759332	-0.0005646466	0.00239551	0.01538792	0.03721292	
0.007909108	0.06641834	-0.0005646466	0.00239551	0.02083321	0.02183375	9.563816e-005	0.003128223	
-0.0002698944	0.005118921	0.01538792	0.03721292	9.563816e-005	0.003128223	0.06417583	-0.01236819	

1.4e+009	0.1069601	0.05109501	0.001620798	-3.374157e-005	0.1379195	0.1079853	0.002732601	-0.0002808161	
0.001620798	-3.374157e-005	0.08061948	0.02596123	0.0009493582	3.862764e-005	0.1123903	0.1102661	
0.1379195	0.1079853	0.0009493582	3.862764e-005	0.09643737	0.06108583	0.001327884	-0.0006139733	
0.002732601	-0.0002808161	0.1123903	0.1102661	0.001327884	-0.0006139733	0.09537107	0.04224941	

1.45e+009	0.0711444	-0.01405637	-0.0007443571	0.001427023	0.08098676	0.01020142	-0.0004031549	0.001608422	
-0.0007443571	0.001427023	0.08412043	-0.031351	-0.001001733	0.001452575	0.0937852	0.0008072189	
0.08098676	0.01020142	-0.001001733	0.001452575	0.04503902	0.01812594	-0.0006704884	0.001453623	
-0.0004031549	0.001608422	0.0937852	0.0008072189	-0.0006704884	0.001453623	0.07791488	-0.02025273	

1.5e+009	0.124567	0.07171376	0.002869517	-1.255392e-005	0.1627873	0.1151127	0.00407683	-0.0008424722	
0.002869517	-1.255392e-005	0.08267281	0.04037643	0.002365339	0.0003564631	0.1264415	0.1132646	
0.1627873	0.1151127	0.002365339	0.0003564631	0.1419953	0.1066618	0.002645222	-0.0006908293	
0.00407683	-0.0008424722	0.1264415	0.1132646	0.002645222	-0.0006908293	0.106436	0.06377435	

1.55e+009	0.1327676	-0.04518277	8.680842e-005	-0.0009098354	0.1828946	-0.05894415	-4.941877e-007	-0.001716439	
8.680842e-005	-0.0009098354	0.1095359	-0.03357093	0.0002209669	-0.0005140851	0.189515	-0.03791866	
0.1828946	-0.05894415	0.0002209669	-0.0005140851	0.1378607	-0.03026449	-0.0001869227	-0.0009393689	
-4.941877e-007	-0.001716439	0.189515	-0.03791866	-0.0001869227	-0.0009393689	0.1278891	-0.04004439	

1.6e+009	0.09885664	0.05091545	0.001587918	0.0007820026	0.1122468	0.03927419	0.001590237	0.0003261973	
0.001587918	0.0007820026	0.06568906	0.0404236	0.001498859	0.0005187781	0.09268306	0.02976556	
0.1122468	0.03927419	0.001498859	0.0005187781	0.1288281	0.0863398	0.00129655	0.0003158273	
0.001590237	0.0003261973	0.09268306	0.02976556	0.00129655	0.0003158273	0.07999117	0.04852842	

1.65e+009	0.1752075	-0.06070461	0.0007614244	-0.001865326	0.2052695	-0.07844903	0.000337783	-0.002662695	
0.0007614244	-0.001865326	0.142637	-0.03007118	0.000706742	-0.001165064	0.205204	-0.0485543	
0.2052695	-0.07844903	0.000706742	-0.001165064	0.2153692	-0.0667188	-7.399964e-005	-0.001616187	
0.000337783	-0.002662695	0.205204	-0.0485543	-7.399964e-005	-0.001616187	0.1707228	-0.04453905	

1.7e+009	0.05565741	-0.03526008	-0.0003158604	-0.0005538833	0.04830625	-0.07687333	-0.0009605999	-0.001043706	
-0.0003158604	-0.0005538833	0.04723625	-0.006139963	1.418991e-005	-0.000426339	0.05966941	-0.08033699	
0.04830625	-0.07687333	1.418991e-005	-0.000426339	0.07531657	-0.03554733	-0.0004361197	-0.0001606999	
-0.0009605999	-0.001043706	0.05966941	-0.08033699	-0.0004361197	-0.0001606999	0.05096766	-0.02878585	

1.75e+009	0.1462395	-0.04870555	0.0004797632	-0.00128878	0.127881	-0.05669455	-0.00026717	-0.001268602	
0.0004797632	-0.00128878	0.1437316	-0.01264953	0.0008616496	-0.00118753	0.1273643	-0.0392495	
0.127881	-0.05669455	0.0008616496	-0.00118753	0.1910583	-0.068394	0.0002109233	-0.0009924268	
-0.00026717	-0.001268602	0.1273643	-0.0392495	0.0002109233	-0.0009924268	0.152015	-0.02649324	

1.8e+009	0.03187109	-0.09079314	-0.001215477	-0.001359566	0.0202914	-0.1078056	-0.002287013	-0.001245109	
-0.001215477	-0.001359566	0.04570689	-0.05153928	-0.0009033153	-0.0015222	0.03952247	-0.1051481	
0.0202914	-0.1078056	-0.0009033153	-0.0015222	0.04012046	-0.1367694	-0.001397632	-0.0007618214	
-0.002287013	-0.001245109	0.03952247	-0.1051481	-0.001397632	-0.0007618214	0.04289564	-0.0856766	

1.85e+009	0.05035387	-0.02169229	-0.001339809	0.0003580511	0.01856659	-0.02041912	-0.00216632	0.00145923	
-0.001339809	0.0003580511	0.09486058	0.003176195	-0.0009332779	-7.300366e-005	0.02804609	-0.02349982	
0.01856659	-0.02041912	-0.0009332779	-7.300366e-005	0.05489594	-0.04559687	-0.0009606577	0.000808263	
-0.00216632	0.00145923	0.02804609	-0.02349982	-0.0009606577	0.000808263	0.06734136	-0.01020121	

1.9e+009	0.02060429	-0.04091827	4.80082e-005	-0.0003127033	0.008892941	-0.02345693	0.000158625	0.0006660424	
4.80082e-005	-0.0003127033	0.04769246	-0.04315778	-0.000180462	-0.000604159	0.01691395	-0.03020867	
0.008892941	-0.02345693	-0.000180462	-0.000604159	0.01229268	-0.0952016	0.0001501996	1.119605e-006	
0.000158625	0.0006660424	0.01691395	-0.03020867	0.0001501996	1.119605e-006	0.03766617	-0.05143841	

1.95e+009	0.001357897	0.004303033	-0.00207292	0.0003786558	-0.002937743	0.01493689	-0.002024203	0.00163025	
-0.00207292	0.0003786558	0.05677269	0.01113102	-0.001942976	-0.0001349771	0.01027392	0.008212863	
-0.002937743	0.01493689	-0.001942976	-0.0001349771	-0.04731119	-0.01696598	-0.001377573	0.0008555106	
-0.002024203	0.00163025	0.01027392	0.008212863	-0.001377573	0.0008555106	0.01778749	0.001158458	

2e+009	0.01520522	0.06765693	0.001074823	0.001276664	0.01419573	0.08087132	0.002624483	0.002205871	
0.001074823	0.001276664	0.04212583	0.008124671	0.0002298306	0.000920599	0.007443268	0.05643112	
0.01419573	0.08087132	0.0002298306	0.000920599	-0.01024972	0.05950773	0.001610099	0.0009454408	
0.002624483	0.002205871	0.007443268	0.05643112	0.001610099	0.0009454408	0.022688	0.03863013	

2.05e+009	0.07200644	0.04417401	-0.001177548	-0.0008396913	0.0858708	0.05320931	-9.565579e-005	-0.0009266134	
-0.001177548	-0.0008396913	0.0794985	0.03334888	-0.001601824	-0.0004879879	0.08149585	0.05982069	
0.0858708	0.05320931	-0.001601824	-0.0004879879	0.01436583	0.03760057	-0.0007123479	-0.0007037694	
-9.565579e-005	-0.0009266134	0.08149585	0.05982069	-0.0007123479	-0.0007037694	0.06852434	0.03670906	

2.1e+009	0.03194702	0.1072068	0.0005306998	0.002559144	0.04631972	0.09117031	0.002285655	0.002477503	
0.0005306998	0.002559144	0.04701232	0.03119583	0.0001846717	0.002482584	0.0392667	0.06364291	
0.04631972	0.09117031	0.0001846717	0.002482584	-0.001552084	0.1539036	0.001503389	0.001687086	
0.002285655	0.002477503	0.0392667	0.06364291	0.001503389	0.001687086	0.02620185	0.0732972	

2.15e+009	0.1816992	0.09339027	0.000642848	-0.001092489	0.1734758	0.07882965	0.001301076	-0.002852646	
0.000642848	-0.001092489	0.1271023	0.06894067	0.0003551196	-0.0003626777	0.1501677	0.09415363	
0.1734758	0.07882965	0.0003551196	-0.0003626777	0.1688613	0.1154759	0.0002596613	-0.001884583	
0.001301076	-0.002852646	0.1501677	0.09415363	0.0002596613	-0.001884583	0.1517621	0.09199185	

2.2e+009	0.1011427	0.01903863	-0.001220716	0.001186843	0.1008039	0.001031716	-0.0009604347	5.068459e-005	
-0.001220716	0.001186843	0.09643695	-0.007596974	-0.001077816	0.001563041	0.1120656	-0.006017835	
0.1008039	0.001031716	-0.001077816	0.001563041	0.07785013	0.07787769	-0.001122485	0.0007403911	
-0.0009604347	5.068459e-005	0.1120656	-0.006017835	-0.001122485	0.0007403911	0.09506819	0.008755784	

2.25e+009	0.2176103	0.09050705	0.001627542	-0.0001959144	0.1786768	0.05678842	0.001214666	-0.002141504	
0.001627542	-0.0001959144	0.1401247	0.07352301	0.001599892	0.0006264895	0.1533874	0.07139265	
0.1786768	0.05678842	0.001599892	0.0006264895	0.2539426	0.1335089	0.0008217188	-0.0009731429	
0.001214666	-0.002141504	0.1533874	0.07139265	0.0008217188	-0.0009731429	0.1772723	0.1018095	

2.3e+009	0.2026247	-0.09229092	-0.0009486797	-0.0003095701	0.1578379	-0.07674008	-0.002418901	-0.001019599	
-0.0009486797	-0.0003095701	0.1682807	-0.05170537	1.634413e-005	5.021059e-005	0.1726429	-0.06184987	
0.1578379	-0.07674008	1.634413e-005	5.021059e-005	0.2193701	-0.07153696	-0.00141235	-0.0001221559	
-0.002418901	-0.001019599	0.1726429	-0.06184987	-0.00141235	-0.0001221559	0.1987962	-0.06423322	

2.35e+009	0.1389431	-0.002253446	0.001252265	0.001480647	0.1072323	0.001553131	-0.0001021282	0.000842794	
0.001252265	0.001480647	0.09883338	0.009080279	0.001902453	0.00116673	0.09343867	-0.001894144	
0.1072323	0.001553131	0.001902453	0.00116673	0.1921989	0.03623729	0.0007165435	0.0008661839	
-0.0001021282	0.000842794	0.09343867	-0.001894144	0.0007165435	0.0008661839	0.1195227	0.01143039	

2.4e+009	0.2078277	-0.1349669	0.000536075	-0.0008688895	0.1455946	-0.08748338	-0.001352552	-0.0007609133	
