!
! FCI USA LLC
! FCI_CC_Long_Link_Pair_5_to_Pair_9_FEXT.s4p
! 
! PART DESCRIPTION: FCI Connector Concept 0.70 m Simulated Channel Model
!
! FREQUENCY RANGE: 50 MHz to 30 GHz in 50 MHz frequency steps
! 
! PORT DEFINITIONS: 
! Port   1  ----->  TX   Pin B4(Side A) -- Pin A5(Side B)    RX  <-----  Port   2
! Port   3  ----->  TX   Pin C4(Side A) -- Pin B5(Side B)    RX  <-----  Port   4
! 
! Information
!
! FCI endeavors to use its reasonable efforts to place accurate and
! up-to-date information in this Touchstone file.  However, this file is
! provided on an as is basis.  FCI GIVES NO WARRANTY, EXPRESS OR 
! IMPLIED, WITH RESPECT TO ANY INFORMATION PROVIDED IN THIS FILE,
! INCLUDING BUT NOT LIMITED TO THE IMPLIED WARRANTIES OF 
! MERCHANTABILITY, FITNESS FOR A PARTICULAR PURPOSE OR NON-INFRINGEMENT.
! FCI SHALL NOT BE LIABLE FOR ANY DIRECT, SPECIAL, INDIRECT, 
! CONSEQUENTIAL, PUNITIVE OR OTHER DAMAGES BASED ON USE OF THIS FILE.
!
! -----------------------------------------------------------------------------
!
#	Hz	S	RI	R	50
5e+007	0.06103485	0.07061153	-0.001858627	-0.001834519	0.04183967	0.07240989	-0.002474219	-0.002404809	
-0.001858627	-0.001834519	0.06212921	0.07108721	-0.00110656	-0.001329367	0.04386693	0.0731204	
0.04183967	0.07240989	-0.00110656	-0.001329367	0.06075081	0.07128356	-0.001726139	-0.001675451	
-0.002474219	-0.002404809	0.04386693	0.0731204	-0.001726139	-0.001675451	0.0632469	0.07229349	

1e+008	0.01212321	-0.02662805	-0.0006077607	0.004227379	0.01382852	-0.01371186	-0.0008488276	0.005612436	
-0.0006077607	0.004227379	0.01119173	-0.02334539	-0.0004256385	0.002811401	0.01311699	-0.009981964	
0.01382852	-0.01371186	-0.0004256385	0.002811401	0.0115617	-0.02613634	-0.0006729514	0.003928804	
-0.0008488276	0.005612436	0.01311699	-0.009981964	-0.0006729514	0.003928804	0.01230426	-0.02647923	

1.5e+008	0.1568598	0.01688214	0.00489091	-0.001737199	0.156558	0.03491918	0.006768643	-0.001976458	
0.00489091	-0.001737199	0.1554517	0.01183347	0.002969513	-0.001533499	0.1585578	0.03020907	
0.156558	0.03491918	0.002969513	-0.001533499	0.1568397	0.01630389	0.004607665	-0.001690442	
0.006768643	-0.001976458	0.1585578	0.03020907	0.004607665	-0.001690442	0.1597151	0.01167609	

2e+008	0.0286403	-0.04449838	0.0006926724	-0.004241098	0.03544112	-0.05149055	0.001214968	-0.006078273	
0.0006926724	-0.004241098	0.02445899	-0.03615877	-4.186707e-005	-0.002241723	0.03128851	-0.04590658	
0.03544112	-0.05149055	-4.186707e-005	-0.002241723	0.02766551	-0.04322365	0.0005136282	-0.003919136	
0.001214968	-0.006078273	0.03128851	-0.04590658	0.0005136282	-0.003919136	0.02645778	-0.04288403	

2.5e+008	0.1388374	0.0395775	-0.007314604	-0.000547214	0.1366432	0.05008069	-0.01018287	-0.001217573	
-0.007314604	-0.000547214	0.1413495	0.03357953	-0.004068331	0.0003075216	0.1429493	0.04441586	
0.1366432	0.05008069	-0.004068331	0.0003075216	0.1392165	0.03945685	-0.006796959	-0.0002685025	
-0.01018287	-0.001217573	0.1429493	0.04441586	-0.006796959	-0.0002685025	0.1410869	0.03144016	

3e+008	0.05008182	-0.05563512	-7.264025e-005	0.004741789	0.06842527	-0.08289707	-0.0007482153	0.006954441	
-7.264025e-005	0.004741789	0.04082467	-0.0442936	0.0007527619	0.002185486	0.05875478	-0.07959126	
0.06842527	-0.08289707	0.0007527619	0.002185486	0.049091	-0.05381858	0.0003448735	0.004196626	
-0.0007482153	0.006954441	0.05875478	-0.07959126	0.0003448735	0.004196626	0.0422894	-0.0510028	

3.5e+008	0.1216867	0.05834548	0.005152567	0.005432787	0.08702295	0.04273788	0.007587946	0.00783252	
0.005152567	0.005432787	0.1347486	0.05445874	0.002271302	0.002847917	0.09661067	0.03989166	
0.08702295	0.04273788	0.002271302	0.002847917	0.1241224	0.05915869	0.004394369	0.004892581	
0.007587946	0.00783252	0.09661067	0.03989166	0.004394369	0.004892581	0.1286076	0.0494647	

4e+008	0.0789338	-0.06604379	0.004983469	-0.007329262	0.08480893	-0.0753464	0.007319464	-0.01037954	
0.004983469	-0.007329262	0.06589371	-0.0602829	0.002648458	-0.003989181	0.07216188	-0.07566204	
0.08480893	-0.0753464	0.002648458	-0.003989181	0.07927555	-0.06624039	0.004555129	-0.006655148	
0.007319464	-0.01037954	0.07216188	-0.07566204	0.004555129	-0.006655148	0.0633881	-0.06140352	

4.5e+008	0.09652383	0.0641449	-0.003246491	-0.008137983	0.04471267	0.025539	-0.005055053	-0.01176425	
-0.003246491	-0.008137983	0.1176507	0.06604253	-0.001497536	-0.004157136	0.0553112	0.02726108	
0.04471267	0.025539	-0.001497536	-0.004157136	0.09916519	0.06468217	-0.002863859	-0.007315581	
-0.005055053	-0.01176425	0.0553112	0.02726108	-0.002863859	-0.007315581	0.1101363	0.05981537	

5e+008	0.112139	-0.06921014	-0.01410863	0.007069455	0.07075736	-0.03891469	-0.01953948	0.01013711	
-0.01410863	0.007069455	0.09977362	-0.07550484	-0.007971837	0.003828507	0.05890915	-0.04053503	
0.07075736	-0.03891469	-0.007971837	0.003828507	0.1131617	-0.07202017	-0.01291859	0.006422212	
-0.01953948	0.01013711	0.05890915	-0.04053503	-0.01291859	0.006422212	0.08995125	-0.06887987	

5.5e+008	0.06605588	0.04840743	0.007003957	0.01175364	0.03833413	0.03738742	0.009715315	0.01666314	
0.007003957	0.01175364	0.08537517	0.05494338	0.004124743	0.006240978	0.05044885	0.04143421	
0.03833413	0.03738742	0.004124743	0.006240978	0.06651605	0.04728711	0.006434921	0.01065703	
0.009715315	0.01666314	0.05044885	0.04143421	0.006434921	0.01065703	0.08402887	0.05502739	

6e+008	0.1319134	-0.05575881	0.01994839	-0.005280921	0.06377253	-0.01235014	0.02745149	-0.007288499	
0.01994839	-0.005280921	0.1233668	-0.0717691	0.01142425	-0.003183947	0.05167439	-0.01448499	
0.06377253	-0.01235014	0.01142425	-0.003183947	0.1320568	-0.05912642	0.01834105	-0.004819658	
0.02745149	-0.007288499	0.05167439	-0.01448499	0.01834105	-0.004819658	0.1106544	-0.06258877	

6.5e+008	0.04505845	0.0209307	-0.01283567	-0.01796963	0.0489877	0.07720042	-0.0167256	-0.02555625	
-0.01283567	-0.01796963	0.05546915	0.02789715	-0.008378037	-0.009434104	0.0667495	0.08407922	
0.0489877	0.07720042	-0.008378037	-0.009434104	0.04300909	0.01890178	-0.01199637	-0.01644544	
-0.0167256	-0.02555625	0.0667495	0.08407922	-0.01199637	-0.01644544	0.06274312	0.03881816	

7e+008	0.1311545	-0.03375725	-0.01905546	0.005265397	0.1088493	-0.005968048	-0.0267858	0.00730651	
-0.01905546	0.005265397	0.1225527	-0.05116414	-0.01061725	0.002912646	0.09506798	-0.01590164	
0.1088493	-0.005968048	-0.01061725	0.002912646	0.127642	-0.0352825	-0.01762141	0.004823307	
-0.0267858	0.00730651	0.09506798	-0.01590164	-0.01762141	0.004823307	0.1183463	-0.04771572	

7.5e+008	0.03785112	0.003954677	0.0135531	0.02482963	0.04940795	0.08580546	0.01683358	0.03442628	
0.0135531	0.02482963	0.0416651	0.01226674	0.009994506	0.01437707	0.06987999	0.1009802	
0.04940795	0.08580546	0.009994506	0.01437707	0.03434966	0.00513829	0.01318171	0.02317767	
0.01683358	0.03442628	0.06987999	0.1009802	0.01318171	0.02317767	0.0521277	0.02824219	

8e+008	0.1230861	-0.01302166	0.01571774	-0.01019607	0.1821094	0.005602684	0.02342656	-0.01307129	
0.01571774	-0.01019607	0.1115132	-0.02875729	0.007336614	-0.007114378	0.1725477	-0.01983036	
0.1821094	0.005602684	0.007336614	-0.007114378	0.1187602	-0.01208328	0.01410746	-0.01003344	
0.02342656	-0.01307129	0.1725477	-0.01983036	0.01410746	-0.01003344	0.1224794	-0.0319176	

8.5e+008	0.03234934	-0.001918683	-0.005133026	-0.02357228	0.04873713	0.01836876	-0.006064052	-0.03270319	
-0.005133026	-0.02357228	0.03434264	0.01676698	-0.004128232	-0.01383295	0.05614067	0.04432819	
0.04873713	0.01836876	-0.004128232	-0.01383295	0.03071057	0.004636322	-0.005055291	-0.02191282	
-0.006064052	-0.03270319	0.05614067	0.04432819	-0.005055291	-0.02191282	0.04087567	0.02334914	

9e+008	0.1253873	0.007181034	-0.01937497	0.01105263	0.2039971	0.02245422	-0.02808922	0.01295545	
-0.01937497	0.01105263	0.1169467	-0.01079868	-0.01031078	0.009392093	0.2073796	-0.01106732	
0.2039971	0.02245422	-0.01031078	0.009392093	0.1264513	0.009453723	-0.0180349	0.01135438	
-0.02808922	0.01295545	0.2073796	-0.01106732	-0.0180349	0.01135438	0.1343303	-0.01678529	

9.5e+008	0.03700889	-0.01797734	0.001770855	0.01378529	0.07247309	-0.0817542	0.001086752	0.02091419	
0.001770855	0.01378529	0.03005328	0.0132365	0.003280889	0.006011124	0.05340757	-0.05694295	
0.07247309	-0.0817542	0.003280889	0.006011124	0.03723221	-0.01057853	0.002757238	0.01214591	
0.001086752	0.02091419	0.05340757	-0.05694295	0.002757238	0.01214591	0.03320436	0.001132951	

1e+009	0.1312934	0.03395455	0.02047571	0.001589382	0.1410215	0.01892811	0.02946902	0.003814866	
0.02047571	0.001589382	0.1389078	0.01194094	0.01069716	-0.001183466	0.1576382	-0.004051069	
0.1410215	0.01892811	0.01069716	-0.001183466	0.138678	0.03573709	0.01876452	0.0007639025	
0.02946902	0.003814866	0.1576382	-0.004051069	0.01876452	0.0007639025	0.1459568	0.005153152	

1.05e+009	0.05959857	-0.04304953	0.0006620136	-0.01578301	0.09278296	-0.1177445	0.002804916	-0.02336358	
0.0006620136	-0.01578301	0.039373	-0.01370622	-0.002455057	-0.007884557	0.05971162	-0.1070442	
0.09278296	-0.1177445	-0.002455057	-0.007884557	0.06254802	-0.04196483	-0.0007900558	-0.01457779	
0.002804916	-0.02336358	0.05971162	-0.1070442	-0.0007900558	-0.01457779	0.04102359	-0.03366304	

1.1e+009	0.1107319	0.04963088	-0.01408744	-0.01212061	0.04671471	-0.0104732	-0.02088917	-0.01807891	
-0.01408744	-0.01212061	0.1412271	0.03572853	-0.006231518	-0.004766485	0.06501831	-0.01087458	
0.04671471	-0.0104732	-0.006231518	-0.004766485	0.1203489	0.04923075	-0.01213784	-0.01002886	
-0.02088917	-0.01807891	0.06501831	-0.01087458	-0.01213784	-0.01002886	0.127474	0.02550565	

1.15e+009	0.08976339	-0.05825494	-0.01440964	0.02037003	0.0666054	-0.06996213	-0.02138224	0.02905439	
-0.01440964	0.02037003	0.06236455	-0.04642561	-0.006797188	0.01074871	0.04250212	-0.06667871	
0.0666054	-0.06996213	-0.006797188	0.01074871	0.09405292	-0.06536352	-0.01291533	0.01845318	
-0.02138224	0.02905439	0.04250212	-0.06667871	-0.01291533	0.01845318	0.05766029	-0.05351719	

1.2e+009	0.07677813	0.03873175	0.01635865	0.01688967	0.007945567	-0.01486947	0.0234894	0.02477367	
0.01635865	0.01688967	0.113672	0.03985889	0.009235768	0.007687532	0.02092333	-0.005085978	
0.007945567	-0.01486947	0.009235768	0.007687532	0.07998593	0.03295292	0.01533661	0.01461809	
0.0234894	0.02477367	0.02092333	-0.005085978	0.01533661	0.01461809	0.09138682	0.02886407	

1.25e+009	0.1048657	-0.04368601	0.02486893	-0.02121903	0.01791649	-0.0008871426	0.03572832	-0.02919181	
0.02486893	-0.02121903	0.08280692	-0.05288216	0.01206731	-0.01235778	0.009085931	0.00942288	
0.01791649	-0.0008871426	0.01206731	-0.01235778	0.1039423	-0.05452528	0.02197971	-0.01930125	
0.03572832	-0.02919181	0.009085931	0.00942288	0.02197971	-0.01930125	0.06713699	-0.03649696	

1.3e+009	0.06008696	0.02118843	-0.02173066	-0.02209641	0.03554967	0.04647406	-0.0301935	-0.03275134	
-0.02173066	-0.02209641	0.08616208	0.02845973	-0.01262539	-0.01048463	0.05644336	0.0459186	
0.03554967	0.04647406	-0.01262539	-0.01048463	0.05451526	0.01354468	-0.02015097	-0.02008915	
-0.0301935	-0.03275134	0.05644336	0.0459186	-0.02015097	-0.02008915	0.07849086	0.02780281	

1.35e+009	0.09911181	-0.02306799	-0.03036761	0.02238278	0.02706376	0.02476997	-0.04281303	0.03017697	
-0.03036761	0.02238278	0.08398513	-0.03759332	-0.01609957	0.01466412	0.01538792	0.03721292	
0.02706376	0.02476997	-0.01609957	0.01466412	0.08883087	-0.02830134	-0.02757669	0.02147865	
-0.04281303	0.03017697	0.01538792	0.03721292	-0.02757669	0.02147865	0.06417583	-0.01236819	

1.4e+009	0.06343706	0.02143491	0.02785037	0.02338796	0.07126906	0.1178759	0.03640366	0.03547446	
0.02785037	0.02338796	0.08061948	0.02596123	0.01851167	0.009493077	0.1123903	0.1102661	
0.07126906	0.1178759	0.01851167	0.009493077	0.05483447	0.02284874	0.02652426	0.02071142	
0.03640366	0.03547446	0.1123903	0.1102661	0.02652426	0.02071142	0.09537107	0.04224941	

1.45e+009	0.1029481	-0.01754229	0.02621993	-0.01730382	0.1223717	0.01393991	0.03874892	-0.02345365	
0.02621993	-0.01730382	0.08412043	-0.031351	0.01252339	-0.01083112	0.0937852	0.0008072189	
0.1223717	0.01393991	0.01252339	-0.01083112	0.08962378	-0.0146448	0.02386348	-0.01664817	
0.03874892	-0.02345365	0.0937852	0.0008072189	0.02386348	-0.01664817	0.07791488	-0.02025273	

1.5e+009	0.06212667	0.0331356	-0.02618947	-0.02951942	0.08125422	0.1054286	-0.03329059	-0.04339745	
-0.02618947	-0.02951942	0.08267281	0.04037643	-0.01918594	-0.01431465	0.1264415	0.1132646	
0.08125422	0.1054286	-0.01918594	-0.01431465	0.05724166	0.04745445	-0.02607162	-0.027032	
-0.03329059	-0.04339745	0.1264415	0.1132646	-0.02607162	-0.027032	0.106436	0.06377435	

1.55e+009	0.1309427	-0.008821276	-0.01898471	0.01935359	0.2165105	0.01205698	-0.03044278	0.0250657	
-0.01898471	0.01935359	0.1095359	-0.03357093	-0.006310357	0.01402196	0.189515	-0.03791866	
0.2165105	0.01205698	-0.006310357	0.01402196	0.1288255	-0.00248518	-0.01639452	0.01988386	
-0.03044278	0.0250657	0.189515	-0.03791866	-0.01639452	0.01988386	0.1278891	-0.04004439	

1.6e+009	0.04974658	0.01110052	0.009436337	0.02656577	0.08269397	-0.007072577	0.01143418	0.03939596	
0.009436337	0.02656577	0.06568906	0.0404236	0.007946533	0.0125282	0.09268306	0.02976556	
0.08269397	-0.007072577	0.007946533	0.0125282	0.05120934	0.02965154	0.01011248	0.02367799	
0.01143418	0.03939596	0.09268306	0.02976556	0.01011248	0.02367799	0.07999117	0.04852842	

1.65e+009	0.1545333	0.008085237	0.02560367	-0.01349867	0.2109202	0.007474796	0.03909672	-0.01615553	
0.02560367	-0.01349867	0.142637	-0.03007118	0.01141982	-0.01191813	0.205204	-0.0485543	
0.2109202	0.007474796	0.01141982	-0.01191813	0.1683508	0.01434316	0.02323241	-0.01467734	
0.03909672	-0.01615553	0.205204	-0.0485543	0.02323241	-0.01467734	0.1707228	-0.04453905	

1.7e+009	0.06456399	-0.04748548	-0.004789875	-0.01853297	0.1026842	-0.1184529	-0.005054977	-0.02927908	
-0.004789875	-0.01853297	0.04723625	-0.006139963	-0.006829314	-0.00665366	0.05966941	-0.08033699	
0.1026842	-0.1184529	-0.006829314	-0.00665366	0.0711434	-0.04112648	-0.00728766	-0.01582673	
-0.005054977	-0.02927908	0.05966941	-0.08033699	-0.00728766	-0.01582673	0.05096766	-0.02878585	

1.75e+009	0.1286593	0.02384214	-0.02552572	-0.005324535	0.1092316	-0.01595037	-0.03790449	-0.009527145	
-0.02552572	-0.005324535	0.1437316	-0.01264953	-0.01129537	0.0006052367	0.1273643	-0.0392495	
0.1092316	-0.01595037	-0.01129537	0.0006052367	0.1493939	0.02474668	-0.02218291	-0.003191284	
-0.03790449	-0.009527145	0.1273643	-0.0392495	-0.02218291	-0.003191284	0.152015	-0.02649324	

1.8e+009	0.0865442	-0.08082587	-0.004720762	0.0270033	0.09138928	-0.1240869	-0.008847695	0.04041011	
-0.004720762	0.0270033	0.04570689	-0.05153928	0.001302802	0.01264543	0.03952247	-0.1051481	
0.09138928	-0.1240869	0.001302802	0.01264543	0.0977986	-0.09240858	-0.002265051	0.02459506	
-0.008847695	0.04041011	0.03952247	-0.1051481	-0.002265051	0.02459506	0.04289564	-0.0856766	

1.85e+009	0.0617996	0.007590864	0.02367259	0.01294604	0.006626557	-0.04440112	0.03490749	0.01944299	
0.02367259	0.01294604	0.09486058	0.003176195	0.01068808	0.003226956	0.02804609	-0.02349982	
0.006626557	-0.04440112	0.01068808	0.003226956	0.07193279	-0.001877372	0.02058691	0.00899137	
0.03490749	0.01944299	0.02804609	-0.02349982	0.02058691	0.00899137	0.06734136	-0.01020121	

1.9e+009	0.08269479	-0.05352607	0.01940115	-0.03034572	0.03346687	-0.0436228	0.02958789	-0.04287603	
0.01940115	-0.03034572	0.04769246	-0.04315778	0.00743646	-0.01521552	0.01691395	-0.03020867	
0.03346687	-0.0436228	0.00743646	-0.01521552	0.08732695	-0.07398939	0.01656044	-0.02648905	
0.02958789	-0.04287603	0.01691395	-0.03020867	0.01656044	-0.02648905	0.03766617	-0.05143841	

1.95e+009	0.02889268	-0.004622167	-0.03162588	-0.02012259	-0.007011172	-0.01334283	-0.04533469	-0.03085466	
-0.03162588	-0.02012259	0.05677269	0.01113102	-0.01731059	-0.007634729	0.01027392	0.008212863	
-0.007011172	-0.01334283	-0.01731059	-0.007634729	0.02072281	-0.02340897	-0.02951503	-0.01715286	
-0.04533469	-0.03085466	0.01027392	0.008212863	-0.02951503	-0.01715286	0.01778749	0.001158458	

2e+009	0.0508884	0.001640906	-0.02267419	0.0347441	-0.009083446	0.03333733	-0.03413907	0.04793878	
-0.02267419	0.0347441	0.04212583	0.008124671	-0.008053289	0.02005905	0.007443268	0.05643112	
-0.009083446	0.03333733	-0.008053289	0.02005905	0.03669405	-0.009959912	-0.01856503	0.03191729	
-0.03413907	0.04793878	0.007443268	0.05643112	-0.01856503	0.03191729	0.022688	0.03863013	

2.05e+009	0.05337321	0.03066158	0.03182614	0.02110966	0.04697973	0.07785654	0.04414784	0.03378098	
0.03182614	0.02110966	0.0794985	0.03334888	0.0179731	0.00686079	0.08149585	0.05982069	
0.04697973	0.07785654	0.0179731	0.00686079	0.03676174	0.02105318	0.02932599	0.018255	
0.04414784	0.03378098	0.08149585	0.05982069	0.02932599	0.018255	0.06852434	0.03670906	

2.1e+009	0.05081048	0.02058235	0.02769941	-0.03374652	0.03895491	0.04642347	0.04196326	-0.04656951	
0.02769941	-0.03374652	0.04701232	0.03119583	0.01129474	-0.02101963	0.0392667	0.06364291	
0.03895491	0.04642347	0.01129474	-0.02101963	0.02291527	0.02523702	0.02423228	-0.03270863	
0.04196326	-0.04656951	0.0392667	0.06364291	0.02423228	-0.03270863	0.02620185	0.0732972	

2.15e+009	0.08510101	0.08295868	-0.0345489	-0.01905386	0.09403321	0.1323959	-0.04711512	-0.03151432	
-0.0345489	-0.01905386	0.1271023	0.06894067	-0.0217059	-0.003899168	0.1501677	0.09415363	
0.09403321	0.1323959	-0.0217059	-0.003899168	0.0757229	0.0993485	-0.03357678	-0.01521595	
-0.04711512	-0.03151432	0.1501677	0.09415363	-0.03357678	-0.01521595	0.1517621	0.09199185	

2.2e+009	0.1238958	0.007832236	-0.02136612	0.02212217	0.157469	0.02195413	-0.03394202	0.03061211	
-0.02136612	0.02212217	0.09643695	-0.007596974	-0.006456955	0.01368972	0.1120656	-0.006017835	
0.157469	0.02195413	-0.006456955	0.01368972	0.1065863	0.01947537	-0.01756947	0.02184023	
-0.03394202	0.03061211	0.1120656	-0.006017835	-0.01756947	0.02184023	0.09506819	0.008755784	

2.25e+009	0.08957504	0.07719712	0.02544123	0.02666771	0.1056333	0.08053332	0.03353422	0.04186219	
0.02544123	0.02666771	0.1401247	0.07352301	0.0180763	0.009091618	0.1533874	0.07139265	
0.1056333	0.08053332	0.0180763	0.009091618	0.09193816	0.1107919	0.0258931	0.02267586	
0.03353422	0.04186219	0.1533874	0.07139265	0.0258931	0.02267586	0.1772723	0.1018095	

2.3e+009	0.1996247	0.006828465	0.0199915	-0.02010656	0.2236022	0.00582013	0.03310669	-0.02765729	
0.0199915	-0.02010656	0.1682807	-0.05170537	0.004381425	-0.01390648	0.1726429	-0.06184987	
0.2236022	0.00582013	0.004381425	-0.01390648	0.2124024	0.01719204	0.01588237	-0.02140406	
0.03310669	-0.02765729	0.1726429	-0.06184987	0.01588237	-0.02140406	0.1987962	-0.06423322	

2.35e+009	0.09274432	-0.02726032	-0.007974793	-0.02315187	0.1037052	-0.05020138	-0.01045702	-0.03547575	
-0.007974793	-0.02315187	0.09883338	0.009080279	-0.007188721	-0.007595388	0.09343867	-0.001894144	
0.1037052	-0.05020138	-0.007188721	-0.007595388	0.1011176	-0.003268335	-0.009902306	-0.01819179	
-0.01045702	-0.03547575	0.09343867	-0.001894144	-0.009902306	-0.01819179	0.1195227	0.01143039	

2.4e+009	0.1940144	0.001186903	-0.02847255	0.006828307	0.1813056	-0.01424698	-0.04385893	0.007342033	
-0.02847255	0.006828307	0.1787181	-0.06714369	-0.01027464	0.007945806	0.1590218	-0.07115081	
0.1813056	-0.01424698	-0.01027464	0.007945806	0.2275007	0.006048882	-0.02369348	0.008840532	
-0.04385893	0.007342033	0.1590218	-0.07115081	-0.02369348	0.008840532	0.216332	-0.09234112	

2.45e+009	0.1166418	-0.1242383	0.002950258	0.02593686	0.1074211	-0.1283528	0.003322034	0.04025192	
0.002950258	0.02593686	0.05500755	-0.08501299	0.005522029	0.008999909	0.03943379	-0.07273718	
0.1074211	-0.1283528	0.005522029	0.008999909	0.1329511	-0.1322998	0.006168975	0.02131959	
0.003322034	0.04025192	0.03943379	-0.07273718	0.006168975	0.02131959	0.05589809	-0.1246801	

2.5e+009	0.08396848	-0.03168336	0.02801911	0.007597896	0.06534981	-0.03806198	0.04076246	0.0119346	
0.02801911	0.007597896	0.09913128	-0.05162459	0.01091642	0.0001786713	0.08676096	-0.03774796	
0.06534981	-0.03806198	0.01091642	0.0001786713	0.1114244	-0.03741007	0.02192493	0.004117437	
