!
! FCI USA LLC
! FCI_CC_Long_Link_Pair_12_to_Pair_9_NEXT.s4p
! 
! PART DESCRIPTION: FCI Connector Concept 0.70 m Simulated Channel Model
!
! FREQUENCY RANGE: 50 MHz to 30 GHz in 50 MHz frequency steps
! 
! PORT DEFINITIONS: 
! Port   1  ----->  TX   Pin J5(Side B) -- Pin A5(Side B)    RX  <-----  Port   2
! Port   3  ----->  TX   Pin K5(Side B) -- Pin B5(Side B)    RX  <-----  Port   4
! 
! Information
!
! FCI endeavors to use its reasonable efforts to place accurate and
! up-to-date information in this Touchstone file.  However, this file is
! provided on an as is basis.  FCI GIVES NO WARRANTY, EXPRESS OR 
! IMPLIED, WITH RESPECT TO ANY INFORMATION PROVIDED IN THIS FILE,
! INCLUDING BUT NOT LIMITED TO THE IMPLIED WARRANTIES OF 
! MERCHANTABILITY, FITNESS FOR A PARTICULAR PURPOSE OR NON-INFRINGEMENT.
! FCI SHALL NOT BE LIABLE FOR ANY DIRECT, SPECIAL, INDIRECT, 
! CONSEQUENTIAL, PUNITIVE OR OTHER DAMAGES BASED ON USE OF THIS FILE.
!
! -----------------------------------------------------------------------------
!
#	Hz	S	RI	R	50
5e+007	0.06947309	0.0747572	-8.53158e-005	5.109349e-005	0.05025828	0.077923	-4.144449e-005	4.112166e-005	
-8.53158e-005	5.109349e-005	0.06212921	0.07108721	-4.612975e-005	4.948021e-005	0.04386693	0.0731204	
0.05025828	0.077923	-4.612975e-005	4.948021e-005	0.07225383	0.07959239	-1.278748e-005	9.24239e-005	
-4.144449e-005	4.112166e-005	0.04386693	0.0731204	-1.278748e-005	9.24239e-005	0.0632469	0.07229349	

1e+008	0.01078305	-0.01018701	0.0002011453	-4.037866e-005	0.01182044	0.002338305	0.0001197924	-4.345477e-006	
0.0002011453	-4.037866e-005	0.01119173	-0.02334539	-4.264571e-005	-4.03833e-005	0.01311699	-0.009981964	
0.01182044	0.002338305	-4.264571e-005	-4.03833e-005	0.0111213	-0.004390035	-8.328709e-005	3.014605e-005	
0.0001197924	-4.345477e-006	0.01311699	-0.009981964	-8.328709e-005	3.014605e-005	0.01230426	-0.02647923	

1.5e+008	0.1650429	0.0005204675	5.046358e-005	-1.802087e-005	0.1709463	0.01896458	7.889697e-005	7.754342e-006	
5.046358e-005	-1.802087e-005	0.1554517	0.01183347	-1.594932e-005	-4.016697e-005	0.1585578	0.03020907	
0.1709463	0.01896458	-1.594932e-005	-4.016697e-005	0.179727	0.001701452	5.813191e-005	-5.83847e-005	
7.889697e-005	7.754342e-006	0.1585578	0.03020907	5.813191e-005	-5.83847e-005	0.1597151	0.01167609	

2e+008	0.02066717	-0.02485996	-0.0001157874	-0.0002270605	0.0243841	-0.03724237	-5.545589e-005	-0.0001705323	
-0.0001157874	-0.0002270605	0.02445899	-0.03615877	-6.218068e-005	5.569165e-005	0.03128851	-0.04590658	
0.0243841	-0.03724237	-6.218068e-005	5.569165e-005	0.02364915	-0.03306379	-5.061665e-005	7.398348e-005	
-5.545589e-005	-0.0001705323	0.03128851	-0.04590658	-5.061665e-005	7.398348e-005	0.02645778	-0.04288403	

2.5e+008	0.1557569	0.01655845	-0.0002375766	5.804858e-005	0.1618781	0.02821365	-8.860945e-005	3.219273e-005	
-0.0002375766	5.804858e-005	0.1413495	0.03357953	-0.0001035681	-7.540209e-005	0.1429493	0.04441586	
0.1618781	0.02821365	-0.0001035681	-7.540209e-005	0.1693145	0.01569946	-5.461388e-006	-9.923857e-005	
-8.860945e-005	3.219273e-005	0.1429493	0.04441586	-5.461388e-006	-9.923857e-005	0.1410869	0.03144016	

3e+008	0.03349404	-0.04003791	-0.0001832526	0.0003299118	0.04427428	-0.08452243	-9.304527e-005	0.0001099789	
-0.0001832526	0.0003299118	0.04082467	-0.0442936	-6.144915e-005	0.0002499513	0.05875478	-0.07959126	
0.04427428	-0.08452243	-6.144915e-005	0.0002499513	0.04017904	-0.0666277	8.007604e-008	0.0001150196	
-9.304527e-005	0.0001099789	0.05875478	-0.07959126	8.007604e-008	0.0001150196	0.0422894	-0.0510028	

3.5e+008	0.1458498	0.03050553	0.0002140157	0.0001721427	0.1062512	0.02519063	8.127196e-005	5.615987e-005	
0.0002140157	0.0001721427	0.1347486	0.05445874	-2.592392e-005	1.713888e-005	0.09661067	0.03989166	
0.1062512	0.02519063	-2.592392e-005	1.713888e-005	0.1344183	0.02236763	-9.543453e-005	-7.673329e-005	
8.127196e-005	5.615987e-005	0.09661067	0.03989166	-9.543453e-005	-7.673329e-005	0.1286076	0.0494647	

4e+008	0.04693026	-0.05433719	9.681827e-005	8.088437e-005	0.04963795	-0.0809558	6.260648e-005	1.266227e-005	
9.681827e-005	8.088437e-005	0.06589371	-0.0602829	7.495493e-005	0.0001932563	0.07216188	-0.07566204	
0.04963795	-0.0809558	7.495493e-005	0.0001932563	0.049532	-0.07369444	7.892025e-005	0.0001176722	
6.260648e-005	1.266227e-005	0.07216188	-0.07566204	7.892025e-005	0.0001176722	0.0633881	-0.06140352	

4.5e+008	0.1271975	0.03720164	0.0001465444	1.241819e-005	0.05102726	0.01718494	-2.442703e-005	-7.57002e-005	
0.0001465444	1.241819e-005	0.1176507	0.06604253	7.968655e-005	0.0001444352	0.0553112	0.02726108	
0.05102726	0.01718494	7.968655e-005	0.0001444352	0.09262061	0.0207692	-9.616983e-005	9.566343e-006	
-2.442703e-005	-7.57002e-005	0.0553112	0.02726108	-9.616983e-005	9.566343e-006	0.1101363	0.05981537	

5e+008	0.05548338	-0.06054853	3.556589e-005	-4.478174e-005	0.02946024	-0.02379097	-4.709453e-005	4.477434e-005	
3.556589e-005	-4.478174e-005	0.09977362	-0.07550484	0.0002519307	-6.462052e-005	0.05890915	-0.04053503	
0.02946024	-0.02379097	0.0002519307	-6.462052e-005	0.04131957	-0.04633452	0.0001444048	3.546723e-005	
-4.709453e-005	4.477434e-005	0.05890915	-0.04053503	0.0001444048	3.546723e-005	0.08995125	-0.06887987	

5.5e+008	0.1061627	0.04044378	8.889195e-005	0.0002802341	0.05725459	0.03512236	-3.994516e-006	0.0001432571	
8.889195e-005	0.0002802341	0.08537517	0.05494338	5.836306e-005	0.0001912625	0.05044885	0.04143421	
0.05725459	0.03512236	5.836306e-005	0.0001912625	0.08105738	0.03086056	-5.900207e-005	8.848777e-005	
-3.994516e-006	0.0001432571	0.05044885	0.04143421	-5.900207e-005	8.848777e-005	0.08402887	0.05502739	

6e+008	0.05956118	-0.05234288	0.0006165871	-0.0001394281	0.01357178	0.02422353	0.0002579583	5.510049e-005	
0.0006165871	-0.0001394281	0.1233668	-0.0717691	0.0004855443	-0.000269518	0.05167439	-0.01448499	
0.01357178	0.02422353	0.0004855443	-0.000269518	0.03036828	-0.01010768	0.0002255455	-4.959647e-005	
0.0002579583	5.510049e-005	0.05167439	-0.01448499	0.0002255455	-4.959647e-005	0.1106544	-0.06258877	

6.5e+008	0.09629352	0.04800251	-1.644998e-005	-0.0003391329	0.1155833	0.08655908	5.179491e-005	-0.0001126998	
-1.644998e-005	-0.0003391329	0.05546915	0.02789715	-0.0001284975	-0.0001243363	0.0667495	0.08407922	
0.1155833	0.08655908	-0.0001284975	-0.0001243363	0.1096885	0.06517787	-5.59732e-005	3.456423e-005	
5.179491e-005	-0.0001126998	0.0667495	0.08407922	-5.59732e-005	3.456423e-005	0.06274312	0.03881816	

7e+008	0.06819994	-0.04475274	0.0003661164	-0.0003791768	0.05022119	0.00373186	0.0001902918	-0.0001474299	
0.0003661164	-0.0003791768	0.1225527	-0.05116414	0.0003907703	-0.0002879989	0.09506798	-0.01590164	
0.05022119	0.00373186	0.0003907703	-0.0002879989	0.05076511	-0.01261154	0.0002383728	-0.0001172524	
0.0001902918	-0.0001474299	0.09506798	-0.01590164	0.0002383728	-0.0001172524	0.1183463	-0.04771572	

7.5e+008	0.09790847	0.06028979	-0.0006318579	-0.0006113191	0.1547289	0.1195617	-0.0002737022	-0.0002428805	
-0.0006318579	-0.0006113191	0.0416651	0.01226674	-0.000399108	-0.000492745	0.06987999	0.1009802	
0.1547289	0.1195617	-0.000399108	-0.000492745	0.1404977	0.09612283	-0.0001404646	-0.0001607703	
-0.0002737022	-0.0002428805	0.06987999	0.1009802	-0.0001404646	-0.0001607703	0.0521277	0.02824219	

8e+008	0.0985756	-0.04745547	-0.0001612215	0.0001961868	0.1400054	-0.06146887	4.063607e-005	9.412659e-005	
-0.0001612215	0.0001961868	0.1115132	-0.02875729	-0.0001222761	-1.653374e-005	0.1725477	-0.01983036	
0.1400054	-0.06146887	-0.0001222761	-1.653374e-005	0.1198936	-0.05441747	4.826039e-005	-8.368986e-005	
4.063607e-005	9.412659e-005	0.1725477	-0.01983036	4.826039e-005	-8.368986e-005	0.1224794	-0.0319176	

8.5e+008	0.09472114	0.0656757	-0.000334638	-0.0003888404	0.1254118	0.08446441	-0.0001410978	-0.0002321088	
-0.000334638	-0.0003888404	0.03434264	0.01676698	-0.0003861417	-0.000422724	0.05614067	0.04432819	
0.1254118	0.08446441	-0.0003861417	-0.000422724	0.1292689	0.08659686	-0.00017705	-0.0002156412	
-0.0001410978	-0.0002321088	0.05614067	0.04432819	-0.00017705	-0.0002156412	0.04087567	0.02334914	

9e+008	0.1372682	-0.05406852	-0.0005002639	0.0001237623	0.1992168	-0.09536039	-0.0001336981	1.518021e-005	
-0.0005002639	0.0001237623	0.1169467	-0.01079868	-0.0005989647	0.0001813129	0.2073796	-0.01106732	
0.1992168	-0.09536039	-0.0005989647	0.0001813129	0.1851878	-0.08636568	-0.0002338829	2.111891e-005	
-0.0001336981	1.518021e-005	0.2073796	-0.01106732	-0.0002338829	2.111891e-005	0.1343303	-0.01678529	

9.5e+008	0.06793366	0.03237452	-0.0002706372	0.0001108805	0.04967419	-0.01565832	-0.0001471179	-0.0001037661	
-0.0002706372	0.0001108805	0.03005328	0.0132365	-0.0001706462	0.0001715805	0.05340757	-0.05694295	
0.04967419	-0.01565832	-0.0001706462	0.0001715805	0.06816106	0.005757313	-6.232691e-005	-6.824628e-006	
-0.0001471179	-0.0001037661	0.05340757	-0.05694295	-6.232691e-005	-6.824628e-006	0.03320436	0.001132951	

1e+009	0.15211	-0.05820124	-0.0007392131	0.0002852617	0.1645354	-0.07924596	-0.0004403045	0.0001057038	
-0.0007392131	0.0002852617	0.1389078	0.01194094	-0.0006024822	0.0002879619	0.1576382	-0.004051069	
0.1645354	-0.07924596	-0.0006024822	0.0002879619	0.1802253	-0.08860826	-0.0003782663	8.223731e-005	
-0.0004403045	0.0001057038	0.1576382	-0.004051069	-0.0003782663	8.223731e-005	0.1459568	0.005153152	

1.05e+009	0.04078811	-0.02404623	-8.271774e-005	0.001209388	0.004111962	-0.08939497	-6.543106e-005	0.0005496836	
-8.271774e-005	0.001209388	0.039373	-0.01370622	-4.17696e-005	0.0009191433	0.05971162	-0.1070442	
0.004111962	-0.08939497	-4.17696e-005	0.0009191433	0.01720886	-0.08612191	-1.935608e-005	0.0003980456	
-6.543106e-005	0.0005496836	0.05971162	-0.1070442	-1.935608e-005	0.0003980456	0.04102359	-0.03366304	

1.1e+009	0.1167048	-0.04106668	0.0003956387	0.0004855096	0.0610423	-0.02962509	5.103773e-006	0.0002196529	
0.0003956387	0.0004855096	0.1412271	0.03572853	0.0001754383	0.0004345246	0.06501831	-0.01087458	
0.0610423	-0.02962509	0.0001754383	0.0004345246	0.08546769	-0.04778015	-0.000147207	0.0001960907	
5.103773e-006	0.0002196529	0.06501831	-0.01087458	-0.000147207	0.0001960907	0.127474	0.02550565	

1.15e+009	0.0240577	-0.03702323	0.0004136425	0.0007086534	0.0009806889	-0.04596849	0.0001914949	0.000465429	
0.0004136425	0.0007086534	0.06236455	-0.04642561	0.0002723093	0.0007452382	0.04250212	-0.06667871	
0.0009806889	-0.04596849	0.0002723093	0.0007452382	-0.001366046	-0.07321839	0.0001316999	0.0004883612	
0.0001914949	0.000465429	0.04250212	-0.06667871	0.0001316999	0.0004883612	0.05766029	-0.05351719	

1.2e+009	0.05786363	-0.01412548	0.0011742	0.0002798241	-0.003840572	0.01063275	0.0005036279	0.0001438189	
0.0011742	0.0002798241	0.113672	0.03985889	0.001132044	0.0004462148	0.02092333	-0.005085978	
-0.003840572	0.01063275	0.001132044	0.0004462148	-0.01305968	0.0006249251	0.0004735083	0.000285331	
0.0005036279	0.0001438189	0.02092333	-0.005085978	0.0004735083	0.000285331	0.09138682	0.02886407	

1.25e+009	0.02433433	0.02041849	0.0004653572	-0.0005338752	0.02252017	0.06963291	0.000186262	-8.217979e-005	
0.0004653572	-0.0005338752	0.08280692	-0.05288216	0.0005790058	-0.0004645584	0.009085931	0.00942288	
0.02252017	0.06963291	0.0005790058	-0.0004645584	0.01506886	0.05155022	0.0003188059	-8.34761e-005	
0.000186262	-8.217979e-005	0.009085931	0.00942288	0.0003188059	-8.34761e-005	0.06713699	-0.03649696	

1.3e+009	0.05818006	0.01005954	0.0009583519	0.0003250646	0.05278578	0.02758952	0.0006221903	0.000259827	
0.0009583519	0.0003250646	0.08616208	0.02845973	0.0009942634	0.0001904052	0.05644336	0.0459186	
0.05278578	0.02758952	0.0009942634	0.0001904052	0.0133759	0.02886429	0.0006146759	0.0001855728	
0.0006221903	0.000259827	0.05644336	0.0459186	0.0006146759	0.0001855728	0.07849086	0.02780281	

1.35e+009	0.03888135	0.08898298	0.0009198895	-0.001632766	0.04801761	0.1275672	0.0005001283	-0.0007999332	
0.0009198895	-0.001632766	0.08398513	-0.03759332	0.0007240142	-0.001598541	0.01538792	0.03721292	
0.04801761	0.1275672	0.0007240142	-0.001598541	0.04597812	0.1610534	0.0004085544	-0.0008254387	
0.0005001283	-0.0007999332	0.01538792	0.03721292	0.0004085544	-0.0008254387	0.06417583	-0.01236819	

1.4e+009	0.1410417	0.03373315	-0.0002316138	-0.0006591599	0.1734091	0.03942598	7.799934e-005	-0.0002495021	
-0.0002316138	-0.0006591599	0.08061948	0.02596123	-0.0002460372	-0.0005025502	0.1123903	0.1102661	
0.1734091	0.03942598	-0.0002460372	-0.0005025502	0.1648956	0.04871487	3.805364e-005	-0.0001439382	
7.799934e-005	-0.0002495021	0.1123903	0.1102661	3.805364e-005	-0.0001439382	0.09537107	0.04224941	

1.45e+009	0.05861785	0.07609035	0.0003005997	-0.001721513	0.06779664	0.06401105	0.0003040941	-0.001079809	
0.0003005997	-0.001721513	0.08412043	-0.031351	0.0003145156	-0.001545684	0.0937852	0.0008072189	
0.06779664	0.06401105	0.0003145156	-0.001545684	0.07508128	0.1262065	0.0003101988	-0.000989908	
0.0003040941	-0.001079809	0.0937852	0.0008072189	0.0003101988	-0.000989908	0.07791488	-0.02025273	

1.5e+009	0.2203751	0.04529646	-0.001745365	-0.001060314	0.2227565	0.03836138	-0.000890073	-0.0005604225	
-0.001745365	-0.001060314	0.08267281	0.04037643	-0.001430741	-0.0009546351	0.1264415	0.1132646	
0.2227565	0.03836138	-0.001430741	-0.0009546351	0.2844093	0.05198902	-0.0006802026	-0.0005059062	
-0.000890073	-0.0005604225	0.1264415	0.1132646	-0.0006802026	-0.0005059062	0.106436	0.06377435	

1.55e+009	0.1025162	-0.0426428	-0.0009989296	0.0001833493	0.09964364	-0.06858356	-0.0003810123	-7.257092e-005	
-0.0009989296	0.0001833493	0.1095359	-0.03357093	-0.0008688843	-5.725008e-005	0.189515	-0.03791866	
0.09964364	-0.06858356	-0.0008688843	-5.725008e-005	0.1260516	-0.06053506	-0.0003687014	-0.0002484216	
-0.0003810123	-7.257092e-005	0.189515	-0.03791866	-0.0003687014	-0.0002484216	0.1278891	-0.04004439	

1.6e+009	0.2136791	0.02570077	-0.001464746	-0.0004505293	0.1717083	0.01536404	-0.000932217	-0.0004540558	
-0.001464746	-0.0004505293	0.06568906	0.0404236	-0.001533599	-0.0004901785	0.09268306	0.02976556	
0.1717083	0.01536404	-0.001533599	-0.0004901785	0.2594286	0.01588317	-0.0009614503	-0.0004412248	
-0.000932217	-0.0004540558	0.09268306	0.02976556	-0.0009614503	-0.0004412248	0.07999117	0.04852842	

1.65e+009	0.1426147	-0.1480378	-0.001735476	0.001149114	0.1204055	-0.1241271	-0.0009681757	0.0005353089	
-0.001735476	0.001149114	0.142637	-0.03007118	-0.001715809	0.001072167	0.205204	-0.0485543	
0.1204055	-0.1241271	-0.001715809	0.001072167	0.1669928	-0.2053442	-0.001020934	0.0004917267	
-0.0009681757	0.0005353089	0.205204	-0.0485543	-0.001020934	0.0004917267	0.1707228	-0.04453905	

1.7e+009	0.08911775	-0.03395077	-0.0003052341	0.001059705	0.06108879	-0.02080673	-0.0002968926	0.0003158341	
-0.0003052341	0.001059705	0.04723625	-0.006139963	-0.0003275705	0.00108713	0.05966941	-0.08033699	
0.06108879	-0.02080673	-0.0003275705	0.00108713	0.07523231	-0.06261156	-0.0002634601	0.0003994294	
-0.0002968926	0.0003158341	0.05966941	-0.08033699	-0.0002634601	0.0003994294	0.05096766	-0.02878585	

1.75e+009	0.1043996	-0.1503925	-0.0012689	0.001573123	0.0822359	-0.08903029	-0.001069746	0.0009623178	
-0.0012689	0.001573123	0.1437316	-0.01264953	-0.001105843	0.00151349	0.1273643	-0.0392495	
0.0822359	-0.08903029	-0.001105843	0.00151349	0.1067856	-0.1927295	-0.0009610309	0.000920255	
-0.001069746	0.0009623178	0.1273643	-0.0392495	-0.0009610309	0.000920255	0.152015	-0.02649324	

1.8e+009	-0.03490786	-0.08329344	0.0008470197	0.003039019	0.002484523	-0.03797029	0.0003996872	0.001802779	
0.0008470197	0.003039019	0.04570689	-0.05153928	0.0008040315	0.002711815	0.03952247	-0.1051481	
0.002484523	-0.03797029	0.0008040315	0.002711815	-0.08787218	-0.1203922	0.0003913998	0.001597929	
0.0003996872	0.001802779	0.03952247	-0.1051481	0.0003913998	0.001597929	0.04289564	-0.0856766	

1.85e+009	0.0004492985	-0.03268093	0.001729696	0.000861319	0.02229956	-0.006496573	0.0005976818	0.0006280456	
0.001729696	0.000861319	0.09486058	0.003176195	0.001422049	0.0008273694	0.02804609	-0.02349982	
0.02229956	-0.006496573	0.001422049	0.0008273694	-0.02921262	-0.02217465	0.0004265282	0.0006425544	
0.0005976818	0.0006280456	0.02804609	-0.02349982	0.0004265282	0.0006425544	0.06734136	-0.01020121	

1.9e+009	-0.03956948	-0.02088182	0.001690964	0.001683098	0.0308559	0.01639672	0.001075192	0.001434534	
0.001690964	0.001683098	0.04769246	-0.04315778	0.001581826	0.001686886	0.01691395	-0.03020867	
0.0308559	0.01639672	0.001581826	0.001686886	-0.07992223	-0.03310625	0.001032087	0.001392348	
0.001075192	0.001434534	0.01691395	-0.03020867	0.001032087	0.001392348	0.03766617	-0.05143841	

1.95e+009	-0.06289131	0.08778766	0.003740843	-0.0007121858	0.01282488	0.03833383	0.002183952	-0.0003683776	
0.003740843	-0.0007121858	0.05677269	0.01113102	0.00350324	-0.0005102654	0.01027392	0.008212863	
0.01282488	0.03833383	0.00350324	-0.0005102654	-0.1035037	0.1350279	0.002074146	-0.0001929845	
0.002183952	-0.0003683776	0.01027392	0.008212863	0.002074146	-0.0001929845	0.01778749	0.001158458	

2e+009	0.068685	0.1251174	0.0008680454	-0.001771853	0.0926478	0.08497299	0.0006316075	-0.0005758242	
0.0008680454	-0.001771853	0.04212583	0.008124671	0.001041051	-0.001640282	0.007443268	0.05643112	
0.0926478	0.08497299	0.001041051	-0.001640282	0.07456374	0.1498436	0.0007769015	-0.0006131923	
0.0006316075	-0.0005758242	0.007443268	0.05643112	0.0007769015	-0.0006131923	0.022688	0.03863013	

2.05e+009	0.02000605	0.09378705	0.002471728	-0.001180959	0.07408355	0.01088264	0.001924966	-0.0006886279	
0.002471728	-0.001180959	0.0794985	0.03334888	0.002390661	-0.001279145	0.08149585	0.05982069	
0.07408355	0.01088264	0.002390661	-0.001279145	0.002006456	0.1309317	0.001831837	-0.0007496615	
0.001924966	-0.0006886279	0.08149585	0.05982069	0.001831837	-0.0007496615	0.06852434	0.03670906	

2.1e+009	0.1729515	0.2046856	0.0001306984	-0.003985622	0.1139543	0.08579874	0.0001683412	-0.002312364	
0.0001306984	-0.003985622	0.04701232	0.03119583	-3.001468e-005	-0.003771596	0.0392667	0.06364291	
0.1139543	0.08579874	-3.001468e-005	-0.003771596	0.2069111	0.241412	4.614553e-005	-0.002225397	
0.0001683412	-0.002312364	0.0392667	0.06364291	4.614553e-005	-0.002225397	0.02620185	0.0732972	

2.15e+009	0.2126757	0.01009279	-0.001224633	-0.001901796	0.1506957	-0.02395909	-0.0002207152	-0.001189134	
-0.001224633	-0.001901796	0.1271023	0.06894067	-0.001121842	-0.001679173	0.1501677	0.09415363	
0.1506957	-0.02395909	-0.001121842	-0.001679173	0.2323981	0.01202972	-0.0002100088	-0.00105135	
-0.0002207152	-0.001189134	0.1501677	0.09415363	-0.0002100088	-0.00105135	0.1517621	0.09199185	

2.2e+009	0.1838986	0.1161557	-0.001067344	-0.003300605	0.0881141	0.03436512	-0.0004522735	-0.002445132	
-0.001067344	-0.003300605	0.09643695	-0.007596974	-0.001058964	-0.003032492	0.1120656	-0.006017835	
0.0881141	0.03436512	-0.001058964	-0.003032492	0.2143539	0.1342952	-0.0004938322	-0.002244134	
-0.0004522735	-0.002445132	0.1120656	-0.006017835	-0.0004938322	-0.002244134	0.09506819	0.008755784	

2.25e+009	0.3199209	-0.07038799	-0.004236651	-0.001575755	0.15611	-0.02227662	-0.002387585	-0.001117549	
-0.004236651	-0.001575755	0.1401247	0.07352301	-0.00363507	-0.001455347	0.1533874	0.07139265	
0.15611	-0.02227662	-0.00363507	-0.001455347	0.3543665	-0.08747553	-0.002017453	-0.001064989	
-0.002387585	-0.001117549	0.1533874	0.07139265	-0.002017453	-0.001064989	0.1772723	0.1018095	

2.3e+009	0.12099	-0.1081788	-0.002971824	0.001197722	0.06190447	-0.03619387	-0.001703848	0.0001710643	
-0.002971824	0.001197722	0.1682807	-0.05170537	-0.002825774	0.0008417122	0.1726429	-0.06184987	
0.06190447	-0.03619387	-0.002825774	0.0008417122	0.1279391	-0.125217	-0.001702697	2.036003e-005	
-0.001703848	0.0001710643	0.1726429	-0.06184987	-0.001702697	2.036003e-005	0.1987962	-0.06423322	

2.35e+009	0.2327846	-0.108584	-0.003532443	0.0003079038	0.1168847	-0.01245989	-0.002619944	-0.0003028317	
-0.003532443	0.0003079038	0.09883338	0.009080279	-0.003403538	0.000216142	0.09343867	-0.001894144	
0.1168847	-0.01245989	-0.003403538	0.000216142	0.2496432	-0.1264927	-0.00248461	-0.0003013762	
