!
! FCI USA LLC
! FCI_CC_Long_Link_Pair_2_to_Pair_9_FEXT.s4p
! 
! PART DESCRIPTION: FCI Connector Concept 0.70 m Simulated Channel Model
!
! FREQUENCY RANGE: 50 MHz to 30 GHz in 50 MHz frequency steps
! 
! PORT DEFINITIONS: 
! Port   1  ----->  TX   Pin D5(Side A) -- Pin A5(Side B)    RX  <-----  Port   2
! Port   3  ----->  TX   Pin E5(Side A) -- Pin B5(Side B)    RX  <-----  Port   4
! 
! Information
!
! FCI endeavors to use its reasonable efforts to place accurate and
! up-to-date information in this Touchstone file.  However, this file is
! provided on an as is basis.  FCI GIVES NO WARRANTY, EXPRESS OR 
! IMPLIED, WITH RESPECT TO ANY INFORMATION PROVIDED IN THIS FILE,
! INCLUDING BUT NOT LIMITED TO THE IMPLIED WARRANTIES OF 
! MERCHANTABILITY, FITNESS FOR A PARTICULAR PURPOSE OR NON-INFRINGEMENT.
! FCI SHALL NOT BE LIABLE FOR ANY DIRECT, SPECIAL, INDIRECT, 
! CONSEQUENTIAL, PUNITIVE OR OTHER DAMAGES BASED ON USE OF THIS FILE.
!
! -----------------------------------------------------------------------------
!
#	Hz	S	RI	R	50
5e+007	0.06098698	0.07004706	-0.0003265548	-0.0002872119	0.04319202	0.07324806	-0.0004931361	-0.0004851909	
-0.0003265548	-0.0002872119	0.06212921	0.07108721	-0.0001688195	-0.0002251146	0.04386693	0.0731204	
0.04319202	0.07324806	-0.0001688195	-0.0002251146	0.06352474	0.07347619	-0.0003230775	-0.0003742658	
-0.0004931361	-0.0004851909	0.04386693	0.0731204	-0.0003230775	-0.0003742658	0.0632469	0.07229349	

1e+008	0.011579	-0.02639795	-3.763143e-005	0.0006456167	0.01336468	-0.01154082	-8.604413e-005	0.001066655	
-3.763143e-005	0.0006456167	0.01119173	-0.02334539	-3.911029e-005	0.0004227644	0.01311699	-0.009981964	
0.01336468	-0.01154082	-3.911029e-005	0.0004227644	0.01182271	-0.02252182	-0.0001010806	0.0007890024	
-8.604413e-005	0.001066655	0.01311699	-0.009981964	-0.0001010806	0.0007890024	0.01230426	-0.02647923	

1.5e+008	0.1522322	0.01307326	0.0006509605	-0.0004461549	0.1588146	0.03293365	0.001141557	-0.0006362032	
0.0006509605	-0.0004461549	0.1554517	0.01183347	0.0003340879	-0.0003214346	0.1585578	0.03020907	
0.1588146	0.03293365	0.0003340879	-0.0003214346	0.1634862	0.01475997	0.0008233256	-0.0004673662	
0.001141557	-0.0006362032	0.1585578	0.03020907	0.0008233256	-0.0004673662	0.1597151	0.01167609	

2e+008	0.02554642	-0.03857035	-2.139115e-005	-0.000451432	0.03393666	-0.05012153	-3.676862e-006	-0.0008455422	
-2.139115e-005	-0.000451432	0.02445899	-0.03615877	-8.124054e-005	-0.0001930264	0.03128851	-0.04590658	
0.03393666	-0.05012153	-8.124054e-005	-0.0001930264	0.02852977	-0.04534114	-4.641174e-005	-0.0006092016	
-3.676862e-006	-0.0008455422	0.03128851	-0.04590658	-4.641174e-005	-0.0006092016	0.02645778	-0.04288403	

2.5e+008	0.1354942	0.03560639	-0.00101052	0.0001023353	0.140566	0.04787631	-0.001665361	0.0001070197	
-0.00101052	0.0001023353	0.1413495	0.03357953	-0.0004030237	0.0001027196	0.1429493	0.04441586	
0.140566	0.04787631	-0.0004030237	0.0001027196	0.1452728	0.03677235	-0.001138264	9.133329e-005	
-0.001665361	0.0001070197	0.1429493	0.04441586	-0.001138264	9.133329e-005	0.1410869	0.03144016	

3e+008	0.04177584	-0.04306725	0.0002851428	0.0005240942	0.06520119	-0.08467451	0.0002628143	0.0008535504	
0.0002851428	0.0005240942	0.04082467	-0.0442936	0.0001134547	0.0002317741	0.05875478	-0.07959126	
0.06520119	-0.08467451	0.0001134547	0.0002317741	0.05126454	-0.06220652	0.0002140539	0.0006623668	
0.0002628143	0.0008535504	0.05875478	-0.07959126	0.0002140539	0.0006623668	0.0422894	-0.0510028	

3.5e+008	0.1300293	0.05988171	0.0006263108	0.0006061688	0.089552	0.04099507	0.001128598	0.00118585	
0.0006263108	0.0006061688	0.1347486	0.05445874	0.000329317	0.0003278939	0.09661067	0.03989166	
0.089552	0.04099507	0.000329317	0.0003278939	0.1218909	0.05066861	0.000783048	0.0007855685	
0.001128598	0.00118585	0.09661067	0.03989166	0.000783048	0.0007855685	0.1286076	0.0494647	

4e+008	0.07010845	-0.05759376	0.0003552594	-0.001033332	0.07970005	-0.07753999	0.0007498113	-0.001660337	
0.0003552594	-0.001033332	0.06589371	-0.0602829	0.0001640937	-0.0006384159	0.07216188	-0.07566204	
0.07970005	-0.07753999	0.0001640937	-0.0006384159	0.07523308	-0.07048645	0.0005581139	-0.001329378	
0.0007498113	-0.001660337	0.07216188	-0.07566204	0.0005581139	-0.001329378	0.0633881	-0.06140352	

4.5e+008	0.114827	0.07331954	-0.0003314291	-0.0008790482	0.04547971	0.02486918	-0.0005563352	-0.001803432	
-0.0003314291	-0.0008790482	0.1176507	0.06604253	-0.0002337747	-0.0002950097	0.0553112	0.02726108	
0.04547971	0.02486918	-0.0002337747	-0.0002950097	0.09268248	0.05194089	-0.0005983078	-0.001001983	
-0.0005563352	-0.001803432	0.0553112	0.02726108	-0.0005983078	-0.001001983	0.1101363	0.05981537	

5e+008	0.1112339	-0.07446564	-0.001672104	0.001095021	0.06390428	-0.03813193	-0.002975302	0.001926621	
-0.001672104	0.001095021	0.09977362	-0.07550484	-0.0007177909	0.0005369848	0.05890915	-0.04053503	
0.06390428	-0.03813193	-0.0007177909	0.0005369848	0.0938327	-0.06636731	-0.001841591	0.001290022	
-0.002975302	0.001926621	0.05890915	-0.04053503	-0.001841591	0.001290022	0.08995125	-0.06887987	

5.5e+008	0.08165827	0.05791549	0.000932236	0.001424884	0.04143982	0.03890975	0.00143095	0.002446499	
0.000932236	0.001424884	0.08537517	0.05494338	0.000481786	0.0006668897	0.05044885	0.04143421	
0.04143982	0.03890975	0.000481786	0.0006668897	0.06762232	0.04608189	0.001111042	0.001673987	
0.00143095	0.002446499	0.05044885	0.04143421	0.001111042	0.001673987	0.08402887	0.05502739	

6e+008	0.1411043	-0.07155703	0.002746565	-0.001273016	0.05548639	-0.01004491	0.004748177	-0.001719882	
0.002746565	-0.001273016	0.1233668	-0.0717691	0.00131907	-0.0007597012	0.05167439	-0.01448499	
0.05548639	-0.01004491	0.00131907	-0.0007597012	0.104881	-0.05143847	0.003010237	-0.001442582	
0.004748177	-0.001719882	0.05167439	-0.01448499	0.003010237	-0.001442582	0.1106544	-0.06258877	

6.5e+008	0.04830239	0.01897714	-0.002245373	-0.00181548	0.05817041	0.08405525	-0.00339567	-0.003575106	
-0.002245373	-0.00181548	0.05546915	0.02789715	-0.001238932	-0.0007489152	0.0667495	0.08407922	
0.05817041	0.08405525	-0.001238932	-0.0007489152	0.05413759	0.04212859	-0.002339879	-0.002186058	
-0.00339567	-0.003575106	0.0667495	0.08407922	-0.002339879	-0.002186058	0.06274312	0.03881816	

7e+008	0.1372595	-0.0478589	-0.002571141	0.001094356	0.1027399	-0.008876824	-0.004444744	0.001611491	
-0.002571141	0.001094356	0.1225527	-0.05116414	-0.001247981	0.0006696965	0.09506798	-0.01590164	
0.1027399	-0.008876824	-0.001247981	0.0006696965	0.1172849	-0.03520271	-0.003064867	0.001246994	
-0.004444744	0.001611491	0.09506798	-0.01590164	-0.003064867	0.001246994	0.1183463	-0.04771572	

7.5e+008	0.03274924	-0.007744935	0.003081554	0.00285243	0.06084535	0.09840004	0.004234004	0.005213167	
0.003081554	0.00285243	0.0416651	0.01226674	0.001890398	0.001159301	0.06987999	0.1009802	
0.06084535	0.09840004	0.001890398	0.001159301	0.04757417	0.04019839	0.0033484	0.003279737	
0.004234004	0.005213167	0.06987999	0.1009802	0.0033484	0.003279737	0.0521277	0.02824219	

8e+008	0.1136468	-0.02049583	0.001386482	-0.001914759	0.1837715	-0.007043969	0.003078757	-0.002896663	
0.001386482	-0.001914759	0.1115132	-0.02875729	0.0004119858	-0.001003144	0.1725477	-0.01983036	
0.1837715	-0.007043969	0.0004119858	-0.001003144	0.1389407	-0.01823175	0.001726546	-0.002077751	
0.003078757	-0.002896663	0.1725477	-0.01983036	0.001726546	-0.002077751	0.1224794	-0.0319176	

8.5e+008	0.02798849	-0.006150685	-0.001576317	-0.003187597	0.05178133	0.03075963	-0.002127788	-0.005361829	
-0.001576317	-0.003187597	0.03434264	0.01676698	-0.001022598	-0.001520703	0.05614067	0.04432819	
0.05178133	0.03075963	-0.001022598	-0.001520703	0.03965146	0.02134438	-0.001659933	-0.003633009	
-0.002127788	-0.005361829	0.05614067	0.04432819	-0.001659933	-0.003633009	0.04087567	0.02334914	

9e+008	0.1056104	0.0007014668	-0.002042822	0.002741831	0.2134518	0.005864124	-0.003913053	0.003585881	
-0.002042822	0.002741831	0.1169467	-0.01079868	-0.0006842439	0.001494443	0.2073796	-0.01106732	
0.2134518	0.005864124	-0.0006842439	0.001494443	0.1583523	2.685078e-005	-0.002448794	0.002823139	
-0.003913053	0.003585881	0.2073796	-0.01106732	-0.002448794	0.002823139	0.1343303	-0.01678529	

9.5e+008	0.0309834	-0.000810949	0.001023516	0.001263958	0.06259907	-0.07840411	0.001072713	0.002887351	
0.001023516	0.001263958	0.03005328	0.0132365	0.000565388	0.000473019	0.05340757	-0.05694295	
0.06259907	-0.07840411	0.000565388	0.000473019	0.04555491	-0.02704043	0.0009954491	0.001627004	
0.001072713	0.002887351	0.05340757	-0.05694295	0.0009954491	0.001627004	0.03320436	0.001132951	

1e+009	0.1222037	0.02466854	0.002660507	-0.0007809046	0.1506844	0.008706515	0.004810697	-0.0007985885	
0.002660507	-0.0007809046	0.1389078	0.01194094	0.001247486	-0.0005323273	0.1576382	-0.004051069	
0.1506844	0.008706515	0.001247486	-0.0005323273	0.1521413	0.01769979	0.003240665	-0.0006857444	
0.004810697	-0.0007985885	0.1576382	-0.004051069	0.003240665	-0.0006857444	0.1459568	0.005153152	

1.05e+009	0.04555386	-0.01443253	-0.001060348	-0.001869482	0.0773538	-0.1227998	-0.0008922843	-0.003320943	
-0.001060348	-0.001869482	0.039373	-0.01370622	-0.000751589	-0.0009559233	0.05971162	-0.1070442	
0.0773538	-0.1227998	-0.000751589	-0.0009559233	0.06534528	-0.0699497	-0.001240542	-0.002408827	
-0.0008922843	-0.003320943	0.05971162	-0.1070442	-0.001240542	-0.002408827	0.04102359	-0.03366304	

1.1e+009	0.127585	0.04719005	-0.001858086	-0.0007018052	0.04764774	-0.01027644	-0.00358494	-0.001987823	
-0.001858086	-0.0007018052	0.1412271	0.03572853	-0.000819219	-7.359056e-005	0.06501831	-0.01087458	
0.04764774	-0.01027644	-0.000819219	-7.359056e-005	0.1031124	0.01963988	-0.002029422	-0.0006835538	
-0.00358494	-0.001987823	0.06501831	-0.01087458	-0.002029422	-0.0006835538	0.127474	0.02550565	

1.15e+009	0.07154334	-0.04109484	-0.0008694629	0.002888603	0.05444262	-0.07106501	-0.001931643	0.004920251	
-0.0008694629	0.002888603	0.06236455	-0.04642561	-0.0002748335	0.001416475	0.04250212	-0.06667871	
0.05444262	-0.07106501	-0.0002748335	0.001416475	0.07299947	-0.07205672	-0.001079827	0.00319501	
-0.001931643	0.004920251	0.04250212	-0.06667871	-0.001079827	0.00319501	0.05766029	-0.05351719	

1.2e+009	0.1081639	0.04970145	0.002729732	0.001463744	0.005199743	-0.01020793	0.004201586	0.003346418	
0.002729732	0.001463744	0.113672	0.03985889	0.001470919	0.0004157346	0.02092333	-0.005085978	
0.005199743	-0.01020793	0.001470919	0.0004157346	0.05517943	0.01010964	0.00298783	0.001532967	
0.004201586	0.003346418	0.02092333	-0.005085978	0.00298783	0.001532967	0.09138682	0.02886407	

1.25e+009	0.09546231	-0.05156318	0.001885607	-0.003754411	0.009979135	0.009445748	0.004352175	-0.00615793	
0.001885607	-0.003754411	0.08280692	-0.05288216	0.0005916036	-0.00186232	0.009085931	0.00942288	
0.009979135	0.009445748	0.0005916036	-0.00186232	0.05682839	-0.03125599	0.002165524	-0.003763049	
0.004352175	-0.00615793	0.009085931	0.00942288	0.002165524	-0.003763049	0.06713699	-0.03649696	

1.3e+009	0.08281567	0.0376607	-0.003318034	-0.001965298	0.04463436	0.05007393	-0.005423879	-0.004092902	
-0.003318034	-0.001965298	0.08616208	0.02845973	-0.001809157	-0.0007575225	0.05644336	0.0459186	
0.04463436	0.05007393	-0.001809157	-0.0007575225	0.05308938	0.02574622	-0.003590712	-0.002472145	
-0.005423879	-0.004092902	0.05644336	0.0459186	-0.003590712	-0.002472145	0.07849086	0.02780281	

1.35e+009	0.1037316	-0.04261612	-0.003059069	0.004776993	0.01819027	0.03539011	-0.006166142	0.007076021	
-0.003059069	0.004776993	0.08398513	-0.03759332	-0.0009666042	0.002716073	0.01538792	0.03721292	
0.01819027	0.03539011	-0.0009666042	0.002716073	0.04501087	0.002218687	-0.003275066	0.00507816	
-0.006166142	0.007076021	0.01538792	0.03721292	-0.003275066	0.00507816	0.06417583	-0.01236819	

1.4e+009	0.07032356	0.02923394	0.004602333	0.001077554	0.09658087	0.1238572	0.007357544	0.003600774	
0.004602333	0.001077554	0.08061948	0.02596123	0.00220061	-7.2042e-005	0.1123903	0.1102661	
0.09658087	0.1238572	0.00220061	-7.2042e-005	0.08199984	0.07227133	0.004627576	0.001470483	
0.007357544	0.003600774	0.1123903	0.1102661	0.004627576	0.001470483	0.09537107	0.04224941	

1.45e+009	0.1117521	-0.03240171	0.002848023	-0.003181532	0.1139537	0.005289395	0.005718385	-0.005104008	
0.002848023	-0.003181532	0.08412043	-0.031351	0.001111357	-0.001661361	0.0937852	0.0008072189	
0.1139537	0.005289395	0.001111357	-0.001661361	0.08845625	-0.004685035	0.003384404	-0.003286145	
0.005718385	-0.005104008	0.0937852	0.0008072189	0.003384404	-0.003286145	0.07791488	-0.02025273	

1.5e+009	0.0646666	0.02888528	-0.005349367	-0.002384161	0.1059981	0.1177013	-0.00802281	-0.005541465	
-0.005349367	-0.002384161	0.08267281	0.04037643	-0.002732284	-0.0003856993	0.1264415	0.1132646	
0.1059981	0.1177013	-0.002732284	-0.0003856993	0.09643755	0.09790452	-0.005508753	-0.002820709	
-0.00802281	-0.005541465	0.1264415	0.1132646	-0.005508753	-0.002820709	0.106436	0.06377435	

1.55e+009	0.131395	-0.02015454	-0.001167452	0.003400471	0.2164124	-0.01633861	-0.003547086	0.00550733	
-0.001167452	0.003400471	0.1095359	-0.03357093	-0.000223757	0.001376587	0.189515	-0.03791866	
0.2164124	-0.01633861	-0.000223757	0.001376587	0.1743682	-0.01572945	-0.00158128	0.003503394	
-0.003547086	0.00550733	0.189515	-0.03791866	-0.00158128	0.003503394	0.1278891	-0.04004439	

1.6e+009	0.05337371	0.006537075	0.002534959	0.003157717	0.08272504	0.006389711	0.003876157	0.006299573	
0.002534959	0.003157717	0.06568906	0.0404236	0.001324594	0.001382182	0.09268306	0.02976556	
0.08272504	0.006389711	0.001324594	0.001382182	0.07889948	0.03845421	0.002575876	0.003715348	
0.003876157	0.006299573	0.09268306	0.02976556	0.002575876	0.003715348	0.07999117	0.04852842	

1.65e+009	0.1448604	-0.009797671	0.002635112	-0.003286083	0.2182755	-0.02114085	0.005592977	-0.005094748	
0.002635112	-0.003286083	0.142637	-0.03007118	0.0009339012	-0.001451314	0.205204	-0.0485543	
0.2182755	-0.02114085	0.0009339012	-0.001451314	0.2177065	-0.01812955	0.003130794	-0.003550134	
0.005592977	-0.005094748	0.205204	-0.0485543	0.003130794	-0.003550134	0.1707228	-0.04453905	

1.7e+009	0.05751949	-0.04368721	-0.00176954	-0.002121723	0.07885731	-0.1162179	-0.002611702	-0.004531617	
-0.00176954	-0.002121723	0.04723625	-0.006139963	-0.0008481211	-0.001008108	0.05966941	-0.08033699	
0.07885731	-0.1162179	-0.0008481211	-0.001008108	0.08077851	-0.08552055	-0.002047206	-0.002282765	
-0.002611702	-0.004531617	0.05966941	-0.08033699	-0.002047206	-0.002282765	0.05096766	-0.02878585	

1.75e+009	0.1206604	0.001042319	-0.003541134	0.0006916653	0.1153314	-0.02435264	-0.006787015	0.0008493288	
-0.003541134	0.0006916653	0.1437316	-0.01264953	-0.001575487	0.0003928111	0.1273643	-0.0392495	
0.1153314	-0.02435264	-0.001575487	0.0003928111	0.1554191	-0.01806614	-0.003773265	0.0006625312	
-0.006787015	0.0008493288	0.1273643	-0.0392495	-0.003773265	0.0006625312	0.152015	-0.02649324	

1.8e+009	0.06165347	-0.0687609	0.0007269694	0.003847645	0.06575894	-0.1265642	0.00102396	0.006880308	
0.0007269694	0.003847645	0.04570689	-0.05153928	0.0002404947	0.001876832	0.03952247	-0.1051481	
0.06575894	-0.1265642	0.0002404947	0.001876832	0.08034724	-0.1427624	0.000966705	0.004074475	
0.00102396	0.006880308	0.03952247	-0.1051481	0.000966705	0.004074475	0.04289564	-0.0856766	

1.85e+009	0.061706	-0.000940602	0.004008581	0.0003312211	0.003509141	-0.03327894	0.00689257	0.001070785	
0.004008581	0.0003312211	0.09486058	0.003176195	0.002065553	0.0001238904	0.02804609	-0.02349982	
0.003509141	-0.03327894	0.002065553	0.0001238904	0.02391	-0.03959888	0.003758675	0.000257232	
0.00689257	0.001070785	0.02804609	-0.02349982	0.003758675	0.000257232	0.06734136	-0.01020121	

1.9e+009	0.04693907	-0.03732844	0.0009492108	-0.004971866	0.02239495	-0.03499262	0.002118441	-0.00839007	
0.0009492108	-0.004971866	0.04769246	-0.04315778	0.0004841066	-0.002606433	0.01691395	-0.03020867	
0.02239495	-0.03499262	0.0004841066	-0.002606433	0.0392605	-0.07379944	0.001288218	-0.004889799	
0.002118441	-0.00839007	0.01691395	-0.03020867	0.001288218	-0.004889799	0.03766617	-0.05143841	

1.95e+009	0.03791965	0.01120895	-0.005607355	-0.001307256	-0.006164166	-0.001366933	-0.009149422	-0.002958491	
-0.005607355	-0.001307256	0.05677269	0.01113102	-0.003098741	-0.0004089181	0.01027392	0.008212863	
-0.006164166	-0.001366933	-0.003098741	-0.0004089181	-0.03206418	-0.03139374	-0.005685337	-0.001395783	
-0.009149422	-0.002958491	0.01027392	0.008212863	-0.005685337	-0.001395783	0.01778749	0.001158458	

2e+009	0.02592808	0.01962657	-0.0008698446	0.006174386	-0.008315124	0.05443483	-0.002582797	0.01022596	
-0.0008698446	0.006174386	0.04212583	0.008124671	-6.853284e-005	0.003104506	0.007443268	0.05643112	
-0.008315124	0.05443483	-6.853284e-005	0.003104506	-0.02265739	0.04951843	-0.001055872	0.005879469	
-0.002582797	0.01022596	0.007443268	0.05643112	-0.001055872	0.005879469	0.022688	0.03863013	

2.05e+009	0.07521611	0.06271486	0.005154955	0.001340342	0.07034067	0.07849594	0.008695963	0.003251816	
0.005154955	0.001340342	0.0794985	0.03334888	0.002634227	0.0004415926	0.08149585	0.05982069	
0.07034067	0.07849594	0.002634227	0.0004415926	0.03910443	0.05756645	0.005058168	0.001841717	
0.008695963	0.003251816	0.08149585	0.05982069	0.005058168	0.001841717	0.06852434	0.03670906	

2.1e+009	0.05009507	0.03298719	0.002214787	-0.006420907	0.03610201	0.05633859	0.004921931	-0.01071678	
0.002214787	-0.006420907	0.04701232	0.03119583	0.0006139943	-0.003207667	0.0392667	0.06364291	
0.03610201	0.05633859	0.0006139943	-0.003207667	-0.01136576	0.09219454	0.002539448	-0.006538942	
0.004921931	-0.01071678	0.0392667	0.06364291	0.002539448	-0.006538942	0.02620185	0.0732972	

2.15e+009	0.1217596	0.1112749	-0.005389656	-0.000868767	0.131038	0.1261554	-0.009609923	-0.002514457	
-0.005389656	-0.000868767	0.1271023	0.06894067	-0.002271585	-0.0002550318	0.1501677	0.09415363	
0.131038	0.1261554	-0.002271585	-0.0002550318	0.1372041	0.161506	-0.00540608	-0.001137539	
-0.009609923	-0.002514457	0.1501677	0.09415363	-0.00540608	-0.001137539	0.1517621	0.09199185	

2.2e+009	0.1475772	-0.002615654	-0.002574443	0.003980738	0.147019	-0.0006878829	-0.004987159	0.006913309	
-0.002574443	0.003980738	0.09643695	-0.007596974	-0.001286811	0.001848447	0.1120656	-0.006017835	
0.147019	-0.0006878829	-0.001286811	0.001848447	0.1288213	0.03202781	-0.002957708	0.003946815	
-0.004987159	0.006913309	0.1120656	-0.006017835	-0.002957708	0.003946815	0.09506819	0.008755784	

2.25e+009	0.1286846	0.084618	0.004822565	0.002740065	0.1296992	0.08248986	0.008816855	0.005886682	
0.004822565	0.002740065	0.1401247	0.07352301	0.001975028	0.001034289	0.1533874	0.07139265	
0.1296992	0.08248986	0.001975028	0.001034289	0.1701365	0.1554837	0.005190235	0.003101696	
0.008816855	0.005886682	0.1533874	0.07139265	0.005190235	0.003101696	0.1772723	0.1018095	

2.3e+009	0.2310639	-0.03055463	0.002756354	-0.003133309	0.2132082	-0.03104916	0.0048133	-0.006738465	
0.002756354	-0.003133309	0.1682807	-0.05170537	0.001734812	-0.0008787593	0.1726429	-0.06184987	
0.2132082	-0.03104916	0.001734812	-0.0008787593	0.2796154	-0.0257372	0.002756989	-0.003579882	
0.0048133	-0.006738465	0.1726429	-0.06184987	0.002756989	-0.003579882	0.1987962	-0.06423322	

2.35e+009	0.1030958	-0.04781084	-0.002240067	-0.004227043	0.08976589	-0.03857257	-0.004464685	-0.006937783	
-0.002240067	-0.004227043	0.09883338	0.009080279	-0.0009283211	-0.002437282	0.09343867	-0.001894144	
0.08976589	-0.03857257	-0.0009283211	-0.002437282	0.1343987	-0.01951625	-0.00247708	-0.004135586	
-0.004464685	-0.006937783	0.09343867	-0.001894144	-0.00247708	-0.004135586	0.1195227	0.01143039	

2.4e+009	0.2057999	-0.05049754	-0.004661597	0.001794225	0.1767909	-0.04040841	-0.008086608	0.004606714	
-0.004661597	0.001794225	0.1787181	-0.06714369	-0.002460288	0.0001223278	0.1590218	-0.07115081	
0.1767909	-0.04040841	-0.002460288	0.0001223278	0.2798905	-0.06437226	-0.004581164	0.00233326	
-0.008086608	0.004606714	0.1590218	-0.07115081	-0.004581164	0.00233326	0.216332	-0.09234112	

