!
! FCI USA LLC
! FCI_CC_Long_Link_Pair_15_to_Pair_9_NEXT.s4p
! 
! PART DESCRIPTION: FCI Connector Concept 0.70 m Simulated Channel Model
!
! FREQUENCY RANGE: 50 MHz to 30 GHz in 50 MHz frequency steps
! 
! PORT DEFINITIONS: 
! Port   1  ----->  TX   Pin H4(Side B) -- Pin A5(Side B)    RX  <-----  Port   2
! Port   3  ----->  TX   Pin I4(Side B) -- Pin B5(Side B)    RX  <-----  Port   4
! 
! Information
!
! FCI endeavors to use its reasonable efforts to place accurate and
! up-to-date information in this Touchstone file.  However, this file is
! provided on an as is basis.  FCI GIVES NO WARRANTY, EXPRESS OR 
! IMPLIED, WITH RESPECT TO ANY INFORMATION PROVIDED IN THIS FILE,
! INCLUDING BUT NOT LIMITED TO THE IMPLIED WARRANTIES OF 
! MERCHANTABILITY, FITNESS FOR A PARTICULAR PURPOSE OR NON-INFRINGEMENT.
! FCI SHALL NOT BE LIABLE FOR ANY DIRECT, SPECIAL, INDIRECT, 
! CONSEQUENTIAL, PUNITIVE OR OTHER DAMAGES BASED ON USE OF THIS FILE.
!
! -----------------------------------------------------------------------------
!
#	Hz	S	RI	R	50
5e+007	0.06660099	0.07373034	2.631339e-005	9.511261e-005	0.04707082	0.07602953	3.470759e-005	1.85411e-005	
2.631339e-005	9.511261e-005	0.06212921	0.07108721	4.924871e-005	7.333329e-005	0.04386693	0.0731204	
0.04707082	0.07602953	4.924871e-005	7.333329e-005	0.06788842	0.0753355	1.211463e-005	-9.253899e-005	
3.470759e-005	1.85411e-005	0.04386693	0.0731204	1.211463e-005	-9.253899e-005	0.0632469	0.07229349	

1e+008	0.01122091	-0.01662064	0.0001387656	9.203372e-005	0.01238374	-0.003954478	4.59044e-005	5.762011e-005	
0.0001387656	9.203372e-005	0.01119173	-0.02334539	-5.968556e-005	0.0001208404	0.01311699	-0.009981964	
0.01238374	-0.003954478	-5.968556e-005	0.0001208404	0.01122837	-0.01378396	-4.255449e-005	2.174312e-005	
4.59044e-005	5.762011e-005	0.01311699	-0.009981964	-4.255449e-005	2.174312e-005	0.01230426	-0.02647923	

1.5e+008	0.1634493	0.006783717	0.0002204215	-6.687936e-005	0.1658444	0.02554003	0.000159172	-2.175525e-005	
0.0002204215	-6.687936e-005	0.1554517	0.01183347	0.0001923578	-4.925245e-005	0.1585578	0.03020907	
0.1658444	0.02554003	0.0001923578	-4.925245e-005	0.1683517	0.007507831	0.000162358	7.717401e-005	
0.000159172	-2.175525e-005	0.1585578	0.03020907	0.000162358	7.717401e-005	0.1597151	0.01167609	

2e+008	0.02369887	-0.03460883	-5.369928e-005	-0.0001622825	0.02844221	-0.04385597	-3.55362e-005	-6.742108e-005	
-5.369928e-005	-0.0001622825	0.02445899	-0.03615877	3.699117e-005	6.561713e-006	0.03128851	-0.04590658	
0.02844221	-0.04385597	3.699117e-005	6.561713e-006	0.02463921	-0.03631952	1.42716e-005	-9.028612e-005	
-3.55362e-005	-6.742108e-005	0.03128851	-0.04590658	1.42716e-005	-9.028612e-005	0.02645778	-0.04288403	

2.5e+008	0.1497085	0.02538446	0.0001035114	3.737152e-005	0.1527353	0.03809121	0.0001577433	-3.396719e-005	
0.0001035114	3.737152e-005	0.1413495	0.03357953	0.0001521937	-0.0001177489	0.1429493	0.04441586	
0.1527353	0.03809121	0.0001521937	-0.0001177489	0.1559745	0.02698274	0.0001463792	-8.912468e-005	
0.0001577433	-3.396719e-005	0.1429493	0.04441586	0.0001463792	-8.912468e-005	0.1410869	0.03144016	

3e+008	0.03939699	-0.04904393	0.000114157	-0.0002184928	0.05390125	-0.08594667	7.120719e-005	-0.0002008553	
0.000114157	-0.0002184928	0.04082467	-0.0442936	0.0001000057	-0.0002161486	0.05875478	-0.07959126	
0.05390125	-0.08594667	0.0001000057	-0.0002161486	0.04381386	-0.05863557	-1.262358e-005	-0.0001394047	
7.120719e-005	-0.0002008553	0.05875478	-0.07959126	-1.262358e-005	-0.0001394047	0.0422894	-0.0510028	

3.5e+008	0.1350378	0.04097384	1.025361e-005	-0.000127607	0.09899183	0.03326637	-7.370438e-005	-0.0001247433	
1.025361e-005	-0.000127607	0.1347486	0.05445874	-0.000116295	-0.0001290909	0.09661067	0.03989166	
0.09899183	0.03326637	-0.000116295	-0.0001290909	0.1336833	0.03875863	1.62185e-007	-8.391431e-005	
-7.370438e-005	-0.0001247433	0.09661067	0.03989166	1.62185e-007	-8.391431e-005	0.1286076	0.0494647	

4e+008	0.05657629	-0.05974114	-2.644689e-005	-0.0003457145	0.06331576	-0.08101373	-2.259632e-005	-0.0002085563	
-2.644689e-005	-0.0003457145	0.06589371	-0.0602829	6.134768e-005	-0.0002173402	0.07216188	-0.07566204	
0.06331576	-0.08101373	6.134768e-005	-0.0002173402	0.06147156	-0.07014062	5.009801e-006	-0.0001989905	
-2.259632e-005	-0.0002085563	0.07216188	-0.07566204	5.009801e-006	-0.0001989905	0.0633881	-0.06140352	

4.5e+008	0.1150869	0.04851944	-0.0003866253	-0.0002512793	0.0488141	0.02116105	-0.0003010734	-0.0001505366	
-0.0003866253	-0.0002512793	0.1176507	0.06604253	-0.0003453349	-0.0002690263	0.0553112	0.02726108	
0.0488141	0.02116105	-0.0003453349	-0.0002690263	0.102878	0.0399571	-0.0003008389	-0.0002275543	
-0.0003010734	-0.0001505366	0.0553112	0.02726108	-0.0003008389	-0.0002275543	0.1101363	0.05981537	

5e+008	0.07163364	-0.06397507	-0.0004087295	0.0002400128	0.04346824	-0.03256996	-0.00025423	0.0001700586	
-0.0004087295	0.0002400128	0.09977362	-0.07550484	-0.0003268942	0.0001453372	0.05890915	-0.04053503	
0.04346824	-0.03256996	-0.0003268942	0.0001453372	0.0686736	-0.06449473	-0.0002724275	0.0002411494	
-0.00025423	0.0001700586	0.05890915	-0.04053503	-0.0002724275	0.0002411494	0.08995125	-0.06887987	

5.5e+008	0.09437976	0.050487	-1.91637e-005	-9.47858e-005	0.05113555	0.03921163	-8.030932e-005	-0.000124809	
-1.91637e-005	-9.47858e-005	0.08537517	0.05494338	-0.0001433649	-0.0001095721	0.05044885	0.04143421	
0.05113555	0.03921163	-0.0001433649	-0.0001095721	0.08082854	0.04147234	-4.33965e-005	-0.0001404957	
-8.030932e-005	-0.000124809	0.05044885	0.04143421	-4.33965e-005	-0.0001404957	0.08402887	0.05502739	

6e+008	0.08375674	-0.05822622	-0.0005815154	0.0003935448	0.0296568	0.003950271	-0.000469379	0.0004619027	
-0.0005815154	0.0003935448	0.1233668	-0.0717691	-0.0005797871	0.000393439	0.05167439	-0.01448499	
0.0296568	0.003950271	-0.0005797871	0.000393439	0.06890629	-0.04734858	-0.0003864624	0.0003739158	
-0.000469379	0.0004619027	0.05167439	-0.01448499	-0.0003864624	0.0003739158	0.1106544	-0.06258877	

6.5e+008	0.08087774	0.05177525	0.0002953444	0.0001840643	0.09066507	0.09266988	0.0002914352	0.0001335992	
0.0002953444	0.0001840643	0.05546915	0.02789715	0.0002779923	0.0002878001	0.0667495	0.08407922	
0.09066507	0.09266988	0.0002779923	0.0002878001	0.0773647	0.05576233	0.0001428225	0.0001141738	
0.0002914352	0.0001335992	0.0667495	0.08407922	0.0001428225	0.0001141738	0.06274312	0.03881816	

7e+008	0.09918775	-0.05166055	-0.0005469861	0.0003313812	0.07475999	-0.01009291	-0.0003326356	0.0002991485	
-0.0005469861	0.0003313812	0.1225527	-0.05116414	-0.0004626944	0.0002652869	0.09506798	-0.01590164	
0.07475999	-0.01009291	-0.0004626944	0.0002652869	0.08353817	-0.03772524	-0.0002733263	0.0003286572	
-0.0003326356	0.0002991485	0.09506798	-0.01590164	-0.0002733263	0.0003286572	0.1183463	-0.04771572	

7.5e+008	0.07285334	0.05266321	0.0006576071	0.0006778283	0.1101239	0.1221277	0.0006086129	0.0003362795	
0.0006576071	0.0006778283	0.0416651	0.01226674	0.0006331742	0.0006426155	0.06987999	0.1009802	
0.1101239	0.1221277	0.0006331742	0.0006426155	0.08151593	0.07411346	0.0005736603	0.0003705866	
0.0006086129	0.0003362795	0.06987999	0.1009802	0.0005736603	0.0003705866	0.0521277	0.02824219	

8e+008	0.124837	-0.04377632	0.0003290611	-0.0001049218	0.1682217	-0.04347013	0.0001270675	-0.0001784879	
0.0003290611	-0.0001049218	0.1115132	-0.02875729	0.0002195162	-0.0001441784	0.1725477	-0.01983036	
0.1682217	-0.04347013	0.0002195162	-0.0001441784	0.1279946	-0.03760597	0.0001410397	-0.0002691917	
0.0001270675	-0.0001784879	0.1725477	-0.01983036	0.0001410397	-0.0002691917	0.1224794	-0.0319176	

8.5e+008	0.05912178	0.04332944	0.0004803042	0.0003466003	0.08281873	0.07012982	0.0004136483	0.0003469544	
0.0004803042	0.0003466003	0.03434264	0.01676698	0.0004554237	0.0004732222	0.05614067	0.04432819	
0.08281873	0.07012982	0.0004554237	0.0004732222	0.07172829	0.06613913	0.0003069104	0.0004180659	
0.0004136483	0.0003469544	0.05614067	0.04432819	0.0003069104	0.0004180659	0.04087567	0.02334914	

9e+008	0.1473904	-0.03425798	0.0005693912	-0.0003685967	0.2187038	-0.05228595	0.0003806307	-0.0003779603	
0.0005693912	-0.0003685967	0.1169467	-0.01079868	0.0006363519	-0.0003226929	0.2073796	-0.01106732	
0.2187038	-0.05228595	0.0006363519	-0.0003226929	0.1740714	-0.03627815	0.0003853893	-0.0003227423	
0.0003806307	-0.0003779603	0.2073796	-0.01106732	0.0003853893	-0.0003227423	0.1343303	-0.01678529	

9.5e+008	0.04336458	0.001502511	4.713861e-005	-0.0002529146	0.04376442	-0.0473489	1.559898e-005	-0.0002043822	
4.713861e-005	-0.0002529146	0.03005328	0.0132365	0.000156435	-0.0002964425	0.05340757	-0.05694295	
0.04376442	-0.0473489	0.000156435	-0.0002964425	0.05211457	0.00101596	0.0001394215	-0.0001605657	
1.559898e-005	-0.0002043822	0.05340757	-0.05694295	0.0001394215	-0.0001605657	0.03320436	0.001132951	

1e+009	0.1487862	-0.02287859	0.0005030539	-0.0003015903	0.1699993	-0.03679732	0.0002828901	-0.0003418514	
0.0005030539	-0.0003015903	0.1389078	0.01194094	0.0004404662	-0.0004085952	0.1576382	-0.004051069	
0.1699993	-0.03679732	0.0004404662	-0.0004085952	0.1791632	-0.0296709	0.0002170131	-0.000438669	
0.0002828901	-0.0003418514	0.1576382	-0.004051069	0.0002170131	-0.000438669	0.1459568	0.005153152	

1.05e+009	0.03993371	-0.04122408	-8.913766e-006	-0.0009372902	0.03074691	-0.1150088	-0.000212613	-0.0006025063	
-8.913766e-006	-0.0009372902	0.039373	-0.01370622	-7.696385e-005	-0.0008651964	0.05971162	-0.1070442	
0.03074691	-0.1150088	-7.696385e-005	-0.0008651964	0.04597245	-0.07338532	-0.000188176	-0.0005154795	
-0.000212613	-0.0006025063	0.05971162	-0.1070442	-0.000188176	-0.0005154795	0.04102359	-0.03366304	

1.1e+009	0.1108669	-0.007613898	-0.0004396327	-0.0003749017	0.05842744	-0.0168383	-0.0003258552	-7.419624e-005	
-0.0004396327	-0.0003749017	0.1412271	0.03572853	-0.0003697904	-0.0002970142	0.06501831	-0.01087458	
0.05842744	-0.0168383	-0.0003697904	-0.0002970142	0.1150753	-0.01828927	-0.0002749792	-5.501612e-005	
-0.0003258552	-7.419624e-005	0.06501831	-0.01087458	-0.0002749792	-5.501612e-005	0.127474	0.02550565	

1.15e+009	0.0361656	-0.04177601	-0.0003506728	-0.0004185751	0.02011997	-0.0642788	-0.0001765407	-0.0002800711	
-0.0003506728	-0.0004185751	0.06236455	-0.04642561	-0.000216068	-0.0004708553	0.04250212	-0.06667871	
0.02011997	-0.0642788	-0.000216068	-0.0004708553	0.03646349	-0.08068709	-6.645002e-005	-0.0003485448	
-0.0001765407	-0.0002800711	0.04250212	-0.06667871	-6.645002e-005	-0.0003485448	0.05766029	-0.05351719	

1.2e+009	0.07022675	0.004392084	-0.0009365109	-0.0002224773	0.0004197455	0.0008209389	-0.0007442564	-4.086847e-005	
-0.0009365109	-0.0002224773	0.113672	0.03985889	-0.0009947069	-0.0003841045	0.02092333	-0.005085978	
0.0004197455	0.0008209389	-0.0009947069	-0.0003841045	0.03749162	-0.01020985	-0.0008040527	-0.0001299239	
-0.0007442564	-4.086847e-005	0.02092333	-0.005085978	-0.0008040527	-0.0001299239	0.09138682	0.02886407	

1.25e+009	0.02967349	0.005027691	-0.0003717993	0.0006725121	0.004645014	0.04497712	-7.795704e-005	0.0005459819	
-0.0003717993	0.0006725121	0.08280692	-0.05288216	-0.0004906462	0.0006425175	0.009085931	0.00942288	
0.004645014	0.04497712	-0.0004906462	0.0006425175	0.01670001	-0.004676686	-0.0001685435	0.0005071518	
-7.795704e-005	0.0005459819	0.009085931	0.00942288	-0.0001685435	0.0005071518	0.06713699	-0.03649696	

1.3e+009	0.0839294	0.02674338	-0.0004699786	-0.0002768541	0.05949581	0.04009127	-0.0003773791	-0.0001269233	
-0.0004699786	-0.0002768541	0.08616208	0.02845973	-0.0005790797	-0.0001428001	0.05644336	0.0459186	
0.05949581	0.04009127	-0.0005790797	-0.0001428001	0.04113587	0.01774027	-0.0003592834	-1.999051e-005	
-0.0003773791	-0.0001269233	0.05644336	0.0459186	-0.0003592834	-1.999051e-005	0.07849086	0.02780281	

1.35e+009	0.03181509	0.04070724	-0.0006503757	0.001272976	0.01334714	0.08900678	-4.813105e-005	0.001008613	
-0.0006503757	0.001272976	0.08398513	-0.03759332	-0.0005414122	0.001287535	0.01538792	0.03721292	
0.01334714	0.08900678	-0.0005414122	0.001287535	0.006142762	0.07168808	-8.391928e-005	0.000848312	
-4.813105e-005	0.001008613	0.01538792	0.03721292	-8.391928e-005	0.000848312	0.06417583	-0.01236819	

1.4e+009	0.1396627	0.06454873	0.0004543658	0.0003475344	0.159051	0.09215164	0.0004123117	-8.183388e-005	
0.0004543658	0.0003475344	0.08061948	0.02596123	0.0004378625	0.0003248789	0.1123903	0.1102661	
0.159051	0.09215164	0.0004378625	0.0003248789	0.1262871	0.07694714	0.0003188259	-2.745756e-007	
0.0004123117	-8.183388e-005	0.1123903	0.1102661	0.0003188259	-2.745756e-007	0.09537107	0.04224941	

1.45e+009	0.06605097	0.005804159	-0.0003411516	0.0009288	0.07103914	0.01933677	-0.0002987656	0.0005728533	
-0.0003411516	0.0009288	0.08412043	-0.031351	-0.0003973084	0.0008990942	0.0937852	0.0008072189	
0.07103914	0.01933677	-0.0003973084	0.0008990942	0.04503303	0.04999045	-0.0003565419	0.0006440893	
-0.0002987656	0.0005728533	0.0937852	0.0008072189	-0.0003565419	0.0006440893	0.07791488	-0.02025273	

1.5e+009	0.1736822	0.08264664	0.001216249	0.0005406002	0.1894895	0.09769498	0.0008302971	5.68587e-005	
0.001216249	0.0005406002	0.08267281	0.04037643	0.001184104	0.0006690415	0.1264415	0.1132646	
0.1894895	0.09769498	0.001184104	0.0006690415	0.1978912	0.1163798	0.0009286711	0.0001625263	
0.0008302971	5.68587e-005	0.1264415	0.1132646	0.0009286711	0.0001625263	0.106436	0.06377435	

1.55e+009	0.1478215	-0.06620011	0.0004313097	-0.0002660721	0.1620089	-0.07439207	5.054252e-005	-0.0002066373	
0.0004313097	-0.0002660721	0.1095359	-0.03357093	0.0004867526	-0.0002106157	0.189515	-0.03791866	
0.1620089	-0.07439207	0.0004867526	-0.0002106157	0.1563154	-0.04758486	6.536979e-005	-0.0002140961	
5.054252e-005	-0.0002066373	0.189515	-0.03791866	6.536979e-005	-0.0002140961	0.1278891	-0.04004439	

1.6e+009	0.1360131	0.04538605	0.0007805098	0.0003670701	0.1290354	0.03939414	0.000574872	0.0001839649	
0.0007805098	0.0003670701	0.06568906	0.0404236	0.0009264129	0.0004006012	0.09268306	0.02976556	
0.1290354	0.03939414	0.0009264129	0.0004006012	0.1762951	0.07843882	0.0005900793	0.0001745092	
0.000574872	0.0001839649	0.09268306	0.02976556	0.0005900793	0.0001745092	0.07999117	0.04852842	

1.65e+009	0.1893149	-0.1064096	0.0009436961	-0.0006163235	0.184779	-0.100189	0.0003369208	-0.0005378302	
0.0009436961	-0.0006163235	0.142637	-0.03007118	0.0009769456	-0.0007157838	0.205204	-0.0485543	
0.184779	-0.100189	0.0009769456	-0.0007157838	0.2332803	-0.1184338	0.0003770795	-0.0004217103	
0.0003369208	-0.0005378302	0.205204	-0.0485543	0.0003770795	-0.0004217103	0.1707228	-0.04453905	

1.7e+009	0.05018042	-0.06204376	0.0001132499	-0.0006017845	0.04102928	-0.06079326	-0.0001942102	-0.0002066567	
0.0001132499	-0.0006017845	0.04723625	-0.006139963	0.0001561133	-0.0006243329	0.05966941	-0.08033699	
0.04102928	-0.06079326	0.0001561133	-0.0006243329	0.07383094	-0.06546108	-2.47548e-005	-0.0002811538	
-0.0001942102	-0.0002066567	0.05966941	-0.08033699	-2.47548e-005	-0.0002811538	0.05096766	-0.02878585	

1.75e+009	0.1321637	-0.0878881	0.0005755515	-0.0007668929	0.1175907	-0.06881534	0.0002997413	-0.000325268	
0.0005755515	-0.0007668929	0.1437316	-0.01264953	0.0005400697	-0.0008318228	0.1273643	-0.0392495	
0.1175907	-0.06881534	0.0005400697	-0.0008318228	0.180329	-0.1198118	0.000319868	-0.0004555449	
0.0002997413	-0.000325268	0.1273643	-0.0392495	0.000319868	-0.0004555449	0.152015	-0.02649324	

1.8e+009	-0.003739129	-0.1166237	-0.0003824091	-0.001440359	0.006601312	-0.08828878	-0.0003161631	-0.0006622248	
-0.0003824091	-0.001440359	0.04570689	-0.05153928	-0.0003099117	-0.001456411	0.03952247	-0.1051481	
0.006601312	-0.08828878	-0.0003099117	-0.001456411	-0.004655112	-0.1696803	-0.0003590808	-0.0007263927	
-0.0003161631	-0.0006622248	0.03952247	-0.1051481	-0.0003590808	-0.0007263927	0.04289564	-0.0856766	

1.85e+009	0.0004053839	-0.02472539	-0.0008618592	-0.0002501435	0.01786063	-0.01433047	-0.0003578017	0.0001328541	
-0.0008618592	-0.0002501435	0.09486058	0.003176195	-0.000871032	-0.0003395909	0.02804609	-0.02349982	
0.01786063	-0.01433047	-0.000871032	-0.0003395909	0.003924457	-0.05305558	-0.0003335647	8.633458e-005	
-0.0003578017	0.0001328541	0.02804609	-0.02349982	-0.0003335647	8.633458e-005	0.06734136	-0.01020121	

1.9e+009	-0.008598195	-0.02659752	-0.000313388	-0.0006628023	0.01127697	-0.00498358	-3.140802e-006	-0.0004143782	
-0.000313388	-0.0006628023	0.04769246	-0.04315778	-0.0003902021	-0.0008464525	0.01691395	-0.03020867	
0.01127697	-0.00498358	-0.0003902021	-0.0008464525	-0.03266835	-0.08765733	-8.270191e-005	-0.0005274923	
-3.140802e-006	-0.0004143782	0.01691395	-0.03020867	-8.270191e-005	-0.0005274923	0.03766617	-0.05143841	

1.95e+009	-0.05330413	0.03037276	-0.00169219	-0.0002224572	0.002622945	0.02180835	-0.0009222127	0.0001153729	
-0.00169219	-0.0002224572	0.05677269	0.01113102	-0.001945029	-0.0001776956	0.01027392	0.008212863	
0.002622945	0.02180835	-0.001945029	-0.0001776956	-0.1085104	0.01975393	-0.001049244	3.280535e-005	
-0.0009222127	0.0001153729	0.01027392	0.008212863	-0.001049244	3.280535e-005	0.01778749	0.001158458	

2e+009	0.02108081	0.1341441	-0.0004118523	0.0008261337	0.03626067	0.0941209	0.0002512194	0.0003425771	
-0.0004118523	0.0008261337	0.04212583	0.008124671	-0.0005236062	0.0009406012	0.007443268	0.05643112	
0.03626067	0.0941209	-0.0005236062	0.0009406012	-0.0103795	0.1250869	1.856835e-005	0.0004502549	
0.0002512194	0.0003425771	0.007443268	0.05643112	1.856835e-005	0.0004502549	0.022688	0.03863013	

2.05e+009	0.06601347	0.06171908	-0.001259183	-2.897407e-005	0.09539758	0.03596611	-0.0007120293	-0.0002967387	
-0.001259183	-2.897407e-005	0.0794985	0.03334888	-0.001242314	0.000185579	0.08149585	0.05982069	
0.09539758	0.03596611	-0.001242314	0.000185579	-0.0009924328	0.07270529	-0.000718763	-0.0001424983	
-0.0007120293	-0.0002967387	0.08149585	0.05982069	-0.000718763	-0.0001424983	0.06852434	0.03670906	

2.1e+009	0.0653954	0.1874655	-0.0004484069	0.00211709	0.06592121	0.09573092	2.041877e-005	0.001018964	
-0.0004484069	0.00211709	0.04701232	0.03119583	-0.000380817	0.002077069	0.0392667	0.06364291	
0.06592121	0.09573092	-0.000380817	0.002077069	0.04231919	0.2387663	1.43451e-005	0.00107049	
2.041877e-005	0.001018964	0.0392667	0.06364291	1.43451e-005	0.00107049	0.02620185	0.0732972	

2.15e+009	0.2439814	0.08506563	0.0006415383	0.0006138139	0.1803569	0.04614886	0.0001153403	-0.0001339896	
0.0006415383	0.0006138139	0.1271023	0.06894067	0.0006031558	0.0006893041	0.1501677	0.09415363	
0.1803569	0.04614886	0.0006031558	0.0006893041	0.2277743	0.1145505	7.289913e-005	-2.813514e-005	
0.0001153403	-0.0001339896	0.1501677	0.09415363	7.289913e-005	-2.813514e-005	0.1517621	0.09199185	

2.2e+009	0.1225861	0.04953637	-0.0001284653	0.001431765	0.08697734	0.003008153	-0.0003193765	0.0008583101	
-0.0001284653	0.001431765	0.09643695	-0.007596974	-0.0001465812	0.001607463	0.1120656	-0.006017835	
0.08697734	0.003008153	-0.0001465812	0.001607463	0.1167401	0.1190133	-0.000232743	0.001063291	
-0.0003193765	0.0008583101	0.1120656	-0.006017835	-0.000232743	0.001063291	0.09506819	0.008755784	

2.25e+009	0.3037457	0.0573552	0.001530629	0.0007836979	0.1754826	0.029708	0.0006177887	0.0001876491	
0.001530629	0.0007836979	0.1401247	0.07352301	0.001767464	0.0009275576	0.1533874	0.07139265	
0.1754826	0.029708	0.001767464	0.0009275576	0.3437911	0.0955526	0.0007879892	0.0002757354	
0.0006177887	0.0001876491	0.1533874	0.07139265	0.0007879892	0.0002757354	0.1772723	0.1018095	

2.3e+009	0.2047034	-0.1492535	0.0009344585	-0.0001163174	0.1262944	-0.07752904	9.902452e-005	2.962653e-005	
0.0009344585	-0.0001163174	0.1682807	-0.05170537	0.001146318	-0.0001792851	0.1726429	-0.06184987	
0.1262944	-0.07752904	0.001146318	-0.0001792851	0.2308678	-0.1233422	0.0002958943	-1.509887e-005	
9.902452e-005	2.962653e-005	0.1726429	-0.06184987	0.0002958943	-1.509887e-005	0.1987962	-0.06423322	

2.35e+009	0.1787644	-0.03457226	0.001416065	0.0005327841	0.1082724	0.002472638	0.0006248463	0.0005473205	
0.001416065	0.0005327841	0.09883338	0.009080279	0.001547324	0.0003660851	0.09343867	-0.001894144	
