!
! FCI USA LLC
! FCI_CC_Long_Link_Pair_11_to_Pair_9_NEXT.s4p
! 
! PART DESCRIPTION: FCI Connector Concept 0.70 m Simulated Channel Model
!
! FREQUENCY RANGE: 50 MHz to 30 GHz in 50 MHz frequency steps
! 
! PORT DEFINITIONS: 
! Port   1  ----->  TX   Pin G5(Side B) -- Pin A5(Side B)    RX  <-----  Port   2
! Port   3  ----->  TX   Pin H5(Side B) -- Pin B5(Side B)    RX  <-----  Port   4
! 
! Information
!
! FCI endeavors to use its reasonable efforts to place accurate and
! up-to-date information in this Touchstone file.  However, this file is
! provided on an as is basis.  FCI GIVES NO WARRANTY, EXPRESS OR 
! IMPLIED, WITH RESPECT TO ANY INFORMATION PROVIDED IN THIS FILE,
! INCLUDING BUT NOT LIMITED TO THE IMPLIED WARRANTIES OF 
! MERCHANTABILITY, FITNESS FOR A PARTICULAR PURPOSE OR NON-INFRINGEMENT.
! FCI SHALL NOT BE LIABLE FOR ANY DIRECT, SPECIAL, INDIRECT, 
! CONSEQUENTIAL, PUNITIVE OR OTHER DAMAGES BASED ON USE OF THIS FILE.
!
! -----------------------------------------------------------------------------
!
#	Hz	S	RI	R	50
5e+007	0.06652041	0.07360585	-1.752701e-006	-0.0001217486	0.04752182	0.07631469	3.547786e-005	2.568804e-005	
-1.752701e-006	-0.0001217486	0.06212921	0.07108721	3.42873e-005	6.275298e-005	0.04386693	0.0731204	
0.04752182	0.07631469	3.42873e-005	6.275298e-005	0.06977937	0.07772517	4.171718e-005	6.194004e-005	
3.547786e-005	2.568804e-005	0.04386693	0.0731204	4.171718e-005	6.194004e-005	0.0632469	0.07229349	

1e+008	0.01093732	-0.01556354	-3.02336e-005	-3.004453e-005	0.01206413	-0.002671126	-4.973553e-006	3.96994e-005	
-3.02336e-005	-3.004453e-005	0.01119173	-0.02334539	8.489238e-005	3.879188e-005	0.01311699	-0.009981964	
0.01206413	-0.002671126	8.489238e-005	3.879188e-005	0.01083802	-0.01057332	4.839714e-005	5.869996e-005	
-4.973553e-006	3.96994e-005	0.01311699	-0.009981964	4.839714e-005	5.869996e-005	0.01230426	-0.02647923	

1.5e+008	0.1620099	0.005775928	4.214035e-005	0.0001149888	0.1661708	0.02406537	0.0002303814	3.331564e-005	
4.214035e-005	0.0001149888	0.1554517	0.01183347	-1.381827e-005	-6.575795e-005	0.1585578	0.03020907	
0.1661708	0.02406537	-1.381827e-005	-6.575795e-005	0.1751748	0.006522876	0.0001484964	-2.562336e-005	
0.0002303814	3.331564e-005	0.1585578	0.03020907	0.0001484964	-2.562336e-005	0.1597151	0.01167609	

2e+008	0.02228115	-0.03079388	4.033609e-006	-0.0001199763	0.02749264	-0.04174547	-3.20746e-005	-0.0001342529	
4.033609e-006	-0.0001199763	0.02445899	-0.03615877	-5.503679e-005	-6.915708e-005	0.03128851	-0.04590658	
0.02749264	-0.04174547	-5.503679e-005	-6.915708e-005	0.02509736	-0.0378146	-3.448907e-005	-0.0001060401	
-3.20746e-005	-0.0001342529	0.03128851	-0.04590658	-3.448907e-005	-0.0001060401	0.02645778	-0.04288403	

2.5e+008	0.1508318	0.02485478	4.21657e-005	-7.562915e-005	0.154052	0.03582549	0.0002243951	-4.752135e-005	
4.21657e-005	-7.562915e-005	0.1413495	0.03357953	-5.502434e-005	2.989039e-005	0.1429493	0.04441586	
0.154052	0.03582549	-5.502434e-005	2.989039e-005	0.1629449	0.02457508	0.0001258995	-6.760607e-006	
0.0002243951	-4.752135e-005	0.1429493	0.04441586	0.0001258995	-6.760607e-006	0.1410869	0.03144016	

3e+008	0.03769491	-0.04442523	-0.0001579653	7.518837e-005	0.05144417	-0.08400964	5.845507e-005	-0.0002588646	
-0.0001579653	7.518837e-005	0.04082467	-0.0442936	-1.137314e-005	8.458914e-005	0.05875478	-0.07959126	
0.05144417	-0.08400964	-1.137314e-005	8.458914e-005	0.04554927	-0.06767097	6.21268e-005	-0.0001820373	
5.845507e-005	-0.0002588646	0.05875478	-0.07959126	6.21268e-005	-0.0001820373	0.0422894	-0.0510028	

3.5e+008	0.1409292	0.04090949	1.53291e-005	-3.785709e-005	0.101675	0.03209609	-0.0001583149	-0.0002250839	
1.53291e-005	-3.785709e-005	0.1347486	0.05445874	1.169395e-006	-7.016984e-005	0.09661067	0.03989166	
0.101675	0.03209609	1.169395e-006	-7.016984e-005	0.1314695	0.03265635	-9.942247e-005	-0.0001657429	
-0.0001583149	-0.0002250839	0.09661067	0.03989166	-9.942247e-005	-0.0001657429	0.1286076	0.0494647	

4e+008	0.05561485	-0.05934521	1.285134e-005	8.093859e-005	0.06038854	-0.08010426	1.826979e-006	-0.0001310487	
1.285134e-005	8.093859e-005	0.06589371	-0.0602829	-8.398275e-005	4.657177e-005	0.07216188	-0.07566204	
0.06038854	-0.08010426	-8.398275e-005	4.657177e-005	0.060146	-0.07694666	-6.319289e-005	-0.0001045484	
1.826979e-006	-0.0001310487	0.07216188	-0.07566204	-6.319289e-005	-0.0001045484	0.0633881	-0.06140352	

4.5e+008	0.1218362	0.04893943	-0.000142316	-1.854819e-005	0.05186848	0.02085359	-0.0004598846	-0.000291091	
-0.000142316	-1.854819e-005	0.1176507	0.06604253	-7.801599e-005	0.0001274572	0.0553112	0.02726108	
0.05186848	0.02085359	-7.801599e-005	0.0001274572	0.0921663	0.02954566	-0.0003068579	-0.0001579589	
-0.0004598846	-0.000291091	0.0553112	0.02726108	-0.0003068579	-0.0001579589	0.1101363	0.05981537	

5e+008	0.07290989	-0.06916131	6.581129e-006	0.0001553094	0.04068695	-0.03223385	-0.0002877011	0.0003063896	
6.581129e-006	0.0001553094	0.09977362	-0.07550484	7.021434e-005	0.0001404758	0.05890915	-0.04053503	
0.04068695	-0.03223385	7.021434e-005	0.0001404758	0.05733864	-0.05815301	-0.000212437	0.0002641495	
-0.0002877011	0.0003063896	0.05890915	-0.04053503	-0.000212437	0.0002641495	0.08995125	-0.06887987	

5.5e+008	0.09632689	0.04764828	0.0001145665	0.0001755817	0.05400473	0.03872269	-0.0001343838	-4.541037e-005	
0.0001145665	0.0001755817	0.08537517	0.05494338	0.0001941861	0.0001195946	0.05044885	0.04143421	
0.05400473	0.03872269	0.0001941861	0.0001195946	0.07455338	0.03544025	-2.533187e-005	-4.097303e-005	
-0.0001343838	-4.541037e-005	0.05044885	0.04143421	-2.533187e-005	-4.097303e-005	0.08402887	0.05502739	

6e+008	0.08321575	-0.06414704	0.0001876073	-3.011452e-005	0.02653156	0.005239693	-0.0004433974	0.0005047268	
0.0001876073	-3.011452e-005	0.1233668	-0.0717691	0.0001589699	-8.112201e-005	0.05167439	-0.01448499	
0.02653156	0.005239693	0.0001589699	-8.112201e-005	0.04924023	-0.02994969	-0.0002975555	0.0003728198	
-0.0004433974	0.0005047268	0.05167439	-0.01448499	-0.0002975555	0.0003728198	0.1106544	-0.06258877	

6.5e+008	0.07760697	0.04529617	8.248228e-005	-5.116972e-006	0.09538736	0.09102113	0.0003346653	0.0003485591	
8.248228e-005	-5.116972e-006	0.05546915	0.02789715	3.886837e-005	-1.06337e-005	0.0667495	0.08407922	
0.09538736	0.09102113	3.886837e-005	-1.06337e-005	0.08744234	0.06342977	0.0002429809	0.0002192266	
0.0003346653	0.0003485591	0.0667495	0.08407922	0.0002429809	0.0002192266	0.06274312	0.03881816	

7e+008	0.09052117	-0.05185431	0.0001945198	-4.699041e-005	0.06863212	-0.00974318	-0.0001430012	0.0002207054	
0.0001945198	-4.699041e-005	0.1225527	-0.05116414	0.0002851819	-3.394163e-005	0.09506798	-0.01590164	
0.06863212	-0.00974318	0.0002851819	-3.394163e-005	0.06766977	-0.02617343	-2.799655e-005	0.0001824961	
-0.0001430012	0.0002207054	0.09506798	-0.01590164	-2.799655e-005	0.0001824961	0.1183463	-0.04771572	

7.5e+008	0.07106682	0.0496095	0.0001637798	-0.0003443831	0.1178283	0.1216938	0.0006025077	0.0003370805	
0.0001637798	-0.0003443831	0.0416651	0.01226674	6.023383e-005	-0.0004126714	0.06987999	0.1009802	
0.1178283	0.1216938	6.023383e-005	-0.0004126714	0.1041809	0.09298061	0.0004187869	0.0001475395	
0.0006025077	0.0003370805	0.06987999	0.1009802	0.0004187869	0.0001475395	0.0521277	0.02824219	

8e+008	0.1098016	-0.04064017	-5.895781e-005	-0.0002127128	0.1606774	-0.04755672	0.000326206	-0.0002409135	
-5.895781e-005	-0.0002127128	0.1115132	-0.02875729	-1.394465e-005	-0.0002130887	0.1725477	-0.01983036	
0.1606774	-0.04755672	-1.394465e-005	-0.0002130887	0.1302824	-0.04291494	0.0002644708	-0.0002299228	
0.000326206	-0.0002409135	0.1725477	-0.01983036	0.0002644708	-0.0002299228	0.1224794	-0.0319176	

8.5e+008	0.06383339	0.05297244	-8.439128e-005	-0.0004521352	0.09103538	0.0753006	0.0003287413	-1.021244e-005	
-8.439128e-005	-0.0004521352	0.03434264	0.01676698	-0.0001973488	-0.00046459	0.05614067	0.04432819	
0.09103538	0.0753006	-0.0001973488	-0.00046459	0.09235316	0.08300095	0.0001807167	-7.316968e-005	
0.0003287413	-1.021244e-005	0.05614067	0.04432819	0.0001807167	-7.316968e-005	0.04087567	0.02334914	

9e+008	0.1380159	-0.03315051	-0.000541913	-5.876685e-006	0.2137056	-0.06059182	0.0002672641	-0.000325112	
-0.000541913	-5.876685e-006	0.1169467	-0.01079868	-0.0005383948	2.798713e-005	0.2073796	-0.01106732	
0.2137056	-0.06059182	-0.0005383948	2.798713e-005	0.1908578	-0.05361906	0.0001016803	-0.0002669288	
0.0002672641	-0.000325112	0.2073796	-0.01106732	0.0001016803	-0.0002669288	0.1343303	-0.01678529	

9.5e+008	0.04889749	0.02396752	-0.0001588242	-0.0001174956	0.04452937	-0.03703706	-6.015603e-006	-0.0005154788	
-0.0001588242	-0.0001174956	0.03005328	0.0132365	-0.0001161023	-7.630746e-005	0.05340757	-0.05694295	
0.04452937	-0.03703706	-0.0001161023	-7.630746e-005	0.05662088	0.0005501204	-5.23022e-006	-0.0003408343	
-6.015603e-006	-0.0005154788	0.05340757	-0.05694295	-5.23022e-006	-0.0003408343	0.03320436	0.001132951	

1e+009	0.1566362	-0.02622495	-0.0005845177	8.905528e-006	0.1704911	-0.04552137	-0.0001449945	-0.0003163683	
-0.0005845177	8.905528e-006	0.1389078	0.01194094	-0.0006132281	1.296269e-005	0.1576382	-0.004051069	
0.1704911	-0.04552137	-0.0006132281	1.296269e-005	0.1923663	-0.04863548	-0.000233986	-0.0002785576	
-0.0001449945	-0.0003163683	0.1576382	-0.004051069	-0.000233986	-0.0002785576	0.1459568	0.005153152	

1.05e+009	0.04267771	-0.02578062	-0.0004421681	0.0007345492	0.02537721	-0.1076878	-0.0003272869	-0.000249829	
-0.0004421681	0.0007345492	0.039373	-0.01370622	-0.0003673164	0.0006782208	0.05971162	-0.1070442	
0.02537721	-0.1076878	-0.0003673164	0.0006782208	0.03832234	-0.09044048	-0.0002839979	-6.86876e-005	
-0.0003272869	-0.000249829	0.05971162	-0.1070442	-0.0002839979	-6.86876e-005	0.04102359	-0.03366304	

1.1e+009	0.1337484	-0.01259234	3.3272e-005	0.0003388528	0.06317338	-0.02042168	-0.0005671443	-0.0001122153	
3.3272e-005	0.0003388528	0.1412271	0.03572853	-8.40231e-005	0.0003717745	0.06501831	-0.01087458	
0.06317338	-0.02042168	-8.40231e-005	0.0003717745	0.1080632	-0.02929067	-0.0004809307	-1.673536e-005	
-0.0005671443	-0.0001122153	0.06501831	-0.01087458	-0.0004809307	-1.673536e-005	0.127474	0.02550565	

1.15e+009	0.03840385	-0.0478055	-0.0001416552	0.0009115559	0.01572904	-0.0619201	-0.0003537824	0.0004506481	
-0.0001416552	0.0009115559	0.06236455	-0.04642561	-7.424305e-005	0.0009383683	0.04250212	-0.06667871	
0.01572904	-0.0619201	-7.424305e-005	0.0009383683	0.02583604	-0.09208687	-0.0002625648	0.0004941623	
-0.0003537824	0.0004506481	0.04250212	-0.06667871	-0.0002625648	0.0004941623	0.05766029	-0.05351719	

1.2e+009	0.08570727	-0.001407901	0.0008332403	0.0005364817	0.00207217	0.001373223	-0.000266734	0.0001393126	
0.0008332403	0.0005364817	0.113672	0.03985889	0.0009177337	0.0005331198	0.02092333	-0.005085978	
0.00207217	0.001373223	0.0009177337	0.0005331198	0.01305478	-0.01279255	-3.168885e-005	0.000210837	
-0.000266734	0.0001393126	0.02092333	-0.005085978	-3.168885e-005	0.000210837	0.09138682	0.02886407	

1.25e+009	0.03320181	-0.01610841	0.0005247139	0.0001818636	0.006575189	0.04754688	-3.547833e-005	0.0007965383	
0.0005247139	0.0001818636	0.08280692	-0.05288216	0.0004296616	6.564751e-005	0.009085931	0.00942288	
0.006575189	0.04754688	0.0004296616	6.564751e-005	0.01158781	0.009140349	6.789381e-006	0.0005703144	
-3.547833e-005	0.0007965383	0.009085931	0.00942288	6.789381e-006	0.0005703144	0.06713699	-0.03649696	

1.3e+009	0.07503243	0.01462321	0.001106029	0.0003590928	0.057795	0.03605441	0.000482321	0.0003185012	
0.001106029	0.0003590928	0.08616208	0.02845973	0.001062624	0.0003958943	0.05644336	0.0459186	
0.057795	0.03605441	0.001062624	0.0003958943	0.02348129	0.01510741	0.0005186446	0.0003322479	
0.000482321	0.0003185012	0.05644336	0.0459186	0.0005186446	0.0003322479	0.07849086	0.02780281	

1.35e+009	0.03005585	0.03011313	0.001264171	-0.001077836	0.0171849	0.09737206	0.0005747771	0.0002398674	
0.001264171	-0.001077836	0.08398513	-0.03759332	0.001101111	-0.0009922264	0.01538792	0.03721292	
0.0171849	0.09737206	0.001101111	-0.0009922264	0.005527821	0.1053182	0.0005589529	4.400891e-005	
0.0005747771	0.0002398674	0.01538792	0.03721292	0.0005589529	4.400891e-005	0.06417583	-0.01236819	

1.4e+009	0.1189029	0.04781939	1.657003e-005	-0.0007202886	0.1622163	0.08131526	0.0006048051	-7.002705e-005	
1.657003e-005	-0.0007202886	0.08061948	0.02596123	0.0001787135	-0.0006292518	0.1123903	0.1102661	
0.1622163	0.08131526	0.0001787135	-0.0006292518	0.1354514	0.07143277	0.0005499209	-0.0001202246	
0.0006048051	-7.002705e-005	0.1123903	0.1102661	0.0005499209	-0.0001202246	0.09537107	0.04224941	

1.45e+009	0.04852576	0.0209574	0.0007729759	-0.001247673	0.06535115	0.03146323	0.0005313235	-0.0005154906	
0.0007729759	-0.001247673	0.08412043	-0.031351	0.0007468963	-0.001349434	0.0937852	0.0008072189	
0.06535115	0.03146323	0.0007468963	-0.001349434	0.03868449	0.08007034	0.0005054052	-0.0005952533	
0.0005313235	-0.0005154906	0.0937852	0.0008072189	0.0005054052	-0.0005952533	0.07791488	-0.02025273	

1.5e+009	0.1640548	0.07508001	-0.0009911905	-0.001586413	0.2001192	0.08727977	0.0001019485	-0.0007507838	
-0.0009911905	-0.001586413	0.08267281	0.04037643	-0.001089363	-0.001406027	0.1264415	0.1132646	
0.2001192	0.08727977	-0.001089363	-0.001406027	0.2278159	0.1112013	-7.788537e-005	-0.0007183272	
0.0001019485	-0.0007507838	0.1264415	0.1132646	-7.788537e-005	-0.0007183272	0.106436	0.06377435	

1.55e+009	0.1167389	-0.04486582	-0.0008994995	-0.0004511798	0.1456121	-0.0750206	-0.00011651	-0.0005707486	
-0.0008994995	-0.0004511798	0.1095359	-0.03357093	-0.0006927669	-0.0003188749	0.189515	-0.03791866	
0.1456121	-0.0750206	-0.0006927669	-0.0003188749	0.1450725	-0.04897661	-0.0001323912	-0.0004570405	
-0.00011651	-0.0005707486	0.189515	-0.03791866	-0.0001323912	-0.0004570405	0.1278891	-0.04004439	

1.6e+009	0.1516663	0.06156599	-0.001360374	-0.001134929	0.1444037	0.03887699	-0.0004529622	-0.0009129098	
-0.001360374	-0.001134929	0.06568906	0.0404236	-0.001269805	-0.001097197	0.09268306	0.02976556	
0.1444037	0.03887699	-0.001269805	-0.001097197	0.2081469	0.07934685	-0.0004787803	-0.000858871	
-0.0004529622	-0.0009129098	0.09268306	0.02976556	-0.0004787803	-0.000858871	0.07999117	0.04852842	

1.65e+009	0.173655	-0.0961924	-0.002379124	0.0005613432	0.1725597	-0.1105018	-0.001162012	-0.0002531459	
-0.002379124	0.0005613432	0.142637	-0.03007118	-0.002050972	0.0003988877	0.205204	-0.0485543	
0.1725597	-0.1105018	-0.002050972	0.0003988877	0.2280382	-0.1428134	-0.001079503	-0.0002248302	
-0.001162012	-0.0002531459	0.205204	-0.0485543	-0.001079503	-0.0002248302	0.1707228	-0.04453905	

1.7e+009	0.0733154	-0.02273287	-0.0006271695	0.001117193	0.045644	-0.04610392	-0.0005389929	0.0001215811	
-0.0006271695	0.001117193	0.04723625	-0.006139963	-0.0007626929	0.0008921797	0.05966941	-0.08033699	
0.045644	-0.04610392	-0.0007626929	0.0008921797	0.07995439	-0.05576758	-0.0005560551	0.0001409723	
-0.0005389929	0.0001215811	0.05966941	-0.08033699	-0.0005560551	0.0001409723	0.05096766	-0.02878585	

1.75e+009	0.1490137	-0.09647487	-0.001764852	0.00108695	0.1143129	-0.08036473	-0.001384431	0.0003114049	
-0.001764852	0.00108695	0.1437316	-0.01264953	-0.001690338	0.001169957	0.1273643	-0.0392495	
0.1143129	-0.08036473	-0.001690338	0.001169957	0.1795242	-0.1444052	-0.001297067	0.0003779622	
-0.001384431	0.0003114049	0.1273643	-0.0392495	-0.001297067	0.0003779622	0.152015	-0.02649324	

1.8e+009	0.009451014	-0.09541646	-0.0001724329	0.003374266	-9.941121e-005	-0.07751483	-0.0004906233	0.00178207	
-0.0001724329	0.003374266	0.04570689	-0.05153928	-4.286337e-005	0.003071969	0.03952247	-0.1051481	
-9.941121e-005	-0.07751483	-4.286337e-005	0.003071969	-0.02251209	-0.1661664	-0.0003932129	0.001702312	
-0.0004906233	0.00178207	0.03952247	-0.1051481	-0.0003932129	0.001702312	0.04289564	-0.0856766	

1.85e+009	0.03943939	-0.0405268	0.001299893	0.001225994	0.02305402	-0.01550691	-1.677998e-005	0.0006862436	
0.001299893	0.001225994	0.09486058	0.003176195	0.001054573	0.0009954926	0.02804609	-0.02349982	
0.02305402	-0.01550691	0.001054573	0.0009954926	0.005525679	-0.05359933	2.438146e-005	0.0006010026	
-1.677998e-005	0.0006862436	0.02804609	-0.02349982	2.438146e-005	0.0006010026	0.06734136	-0.01020121	

1.9e+009	-0.00592003	-0.04572867	0.0009845004	0.002621304	0.008724028	-0.003758917	0.0003178434	0.002139364	
0.0009845004	0.002621304	0.04769246	-0.04315778	0.000825944	0.002469836	0.01691395	-0.03020867	
0.008724028	-0.003758917	0.000825944	0.002469836	-0.04325549	-0.09055757	0.0002836512	0.001949097	
0.0003178434	0.002139364	0.01691395	-0.03020867	0.0002836512	0.001949097	0.03766617	-0.05143841	

1.95e+009	-0.035551	0.01779545	0.00403643	0.0006504466	0.00226422	0.02741796	0.002070731	0.0006501608	
0.00403643	0.0006504466	0.05677269	0.01113102	0.003618084	0.0006755374	0.01027392	0.008212863	
0.00226422	0.02741796	0.003618084	0.0006755374	-0.1151874	0.03643325	0.001934718	0.0006339217	
0.002070731	0.0006501608	0.01027392	0.008212863	0.001934718	0.0006339217	0.01778749	0.001158458	

2e+009	0.02191763	0.09580154	0.001856746	-0.001177007	0.04593196	0.09354989	0.001265353	0.0001564383	
0.001856746	-0.001177007	0.04212583	0.008124671	0.001751356	-0.0009363587	0.007443268	0.05643112	
0.04593196	0.09354989	0.001751356	-0.0009363587	0.005354529	0.123287	0.001157494	0.0001122911	
0.001265353	0.0001564383	0.007443268	0.05643112	0.001157494	0.0001122911	0.022688	0.03863013	

2.05e+009	0.03959168	0.04789352	0.003156643	-0.0006700596	0.0859224	0.0331594	0.002299878	-0.0002997539	
0.003156643	-0.0006700596	0.0794985	0.03334888	0.003050354	-0.0006908161	0.08149585	0.05982069	
0.0859224	0.0331594	0.003050354	-0.0006908161	-0.0174865	0.07499713	0.002167754	-0.0002958298	
0.002299878	-0.0002997539	0.08149585	0.05982069	0.002167754	-0.0002958298	0.06852434	0.03670906	

2.1e+009	0.06321882	0.1726452	0.001731393	-0.00435221	0.0795389	0.1031469	0.001340186	-0.002143938	
0.001731393	-0.00435221	0.04701232	0.03119583	0.001294534	-0.003934143	0.0392667	0.06364291	
0.0795389	0.1031469	0.001294534	-0.003934143	0.06939708	0.2486531	0.001065942	-0.001983163	
0.001340186	-0.002143938	0.0392667	0.06364291	0.001065942	-0.001983163	0.02620185	0.0732972	

2.15e+009	0.2050038	0.06617168	-0.0008984296	-0.002664295	0.1792442	0.02889073	0.0002381165	-0.001683256	
-0.0008984296	-0.002664295	0.1271023	0.06894067	-0.0006762842	-0.002184575	0.1501677	0.09415363	
0.1792442	0.02889073	-0.0006762842	-0.002184575	0.2205452	0.08741263	0.0002338154	-0.001457146	
0.0002381165	-0.001683256	0.1501677	0.09415363	0.0002338154	-0.001457146	0.1517621	0.09199185	

2.2e+009	0.1049267	0.08064568	-1.429531e-005	-0.003570918	0.08752705	0.02073433	0.0003269135	-0.002463554	
-1.429531e-005	-0.003570918	0.09643695	-0.007596974	6.631468e-005	-0.00329865	0.1120656	-0.006017835	
0.08752705	0.02073433	6.631468e-005	-0.00329865	0.1220686	0.1435376	0.0003011393	-0.002196327	
0.0003269135	-0.002463554	0.1120656	-0.006017835	0.0003011393	-0.002196327	0.09506819	0.008755784	

2.25e+009	0.2880717	0.05071461	-0.003765328	-0.003066731	0.1842349	0.01326049	-0.001767947	-0.002229374	
-0.003765328	-0.003066731	0.1401247	0.07352301	-0.003225702	-0.002678249	0.1533874	0.07139265	
0.1842349	0.01326049	-0.003225702	-0.002678249	0.3516159	0.06398697	-0.001508731	-0.001961735	
-0.001767947	-0.002229374	0.1533874	0.07139265	-0.001508731	-0.001961735	0.1772723	0.1018095	

2.3e+009	0.1695197	-0.1104844	-0.00368823	-8.937681e-005	0.1053257	-0.07501486	-0.00229699	-0.0007879291	
-0.00368823	-8.937681e-005	0.1682807	-0.05170537	-0.00316473	-0.0002194163	0.1726429	-0.06184987	
0.1053257	-0.07501486	-0.00316473	-0.0002194163	0.1963564	-0.1144105	-0.001983502	-0.0007102508	
-0.00229699	-0.0007879291	0.1726429	-0.06184987	-0.001983502	-0.0007102508	0.1987962	-0.06423322	

2.35e+009	0.2056892	-0.01558884	-0.00378465	-0.0009110568	0.1245578	-0.003020039	-0.002449393	-0.001133685	
-0.00378465	-0.0009110568	0.09883338	0.009080279	-0.003549794	-0.0008537562	0.09343867	-0.001894144	
0.1245578	-0.003020039	-0.003549794	-0.0008537562	0.265254	-0.01861182	-0.002252946	-0.001035046	
