!
! FCI USA LLC
! FCI_CC_Short_Link_Pair_11_to_Pair_3_Through.s4p
! 
! PART DESCRIPTION: FCI Connector Concept 0.15 m Simulated Channel Model
!
! FREQUENCY RANGE: 50 MHz to 30 GHz in 50 MHz frequency steps
! 
! PORT DEFINITIONS: 
! Port   1  ----->  TX   Pin G5(Side B) -- Pin G5(Side A)    RX  <-----  Port   2
! Port   3  ----->  TX   Pin H5(Side B) -- Pin H5(Side A)    RX  <-----  Port   4
! 
! Information
!
! FCI endeavors to use its reasonable efforts to place accurate and
! up-to-date information in this Touchstone file.  However, this file is
! provided on an as is basis.  FCI GIVES NO WARRANTY, EXPRESS OR 
! IMPLIED, WITH RESPECT TO ANY INFORMATION PROVIDED IN THIS FILE,
! INCLUDING BUT NOT LIMITED TO THE IMPLIED WARRANTIES OF 
! MERCHANTABILITY, FITNESS FOR A PARTICULAR PURPOSE OR NON-INFRINGEMENT.
! FCI SHALL NOT BE LIABLE FOR ANY DIRECT, SPECIAL, INDIRECT, 
! CONSEQUENTIAL, PUNITIVE OR OTHER DAMAGES BASED ON USE OF THIS FILE.
!
! -----------------------------------------------------------------------------
!
#	Hz	S	RI	R	50
0	0.03061587	0.05488883	0.9325851	-0.3212331	0.02098752	0.05764336	-0.007984251	-0.009884651	
0.9325851	-0.3212331	0.03061587	0.05488883	-0.007984251	-0.009884651	0.02098752	0.05764336	
0.02098752	0.05764336	-0.007984251	-0.009884651	0.03294238	0.05976214	0.9313085	-0.3236704	
-0.007984251	-0.009884651	0.02098752	0.05764336	0.9313085	-0.3236704	0.03294238	0.05976214	

5e+007	0.03061587	0.05488883	0.9325851	-0.3212331	0.02098752	0.05764336	-0.007984251	-0.009884651	
0.9325851	-0.3212331	0.03061587	0.05488883	-0.007984251	-0.009884651	0.02098752	0.05764336	
0.02098752	0.05764336	-0.007984251	-0.009884651	0.03294238	0.05976214	0.9313085	-0.3236704	
-0.007984251	-0.009884651	0.02098752	0.05764336	0.9313085	-0.3236704	0.03294238	0.05976214	

1e+008	0.1150423	0.0738975	0.6316869	-0.7241921	0.1032246	0.08664749	-0.02469704	0.002980622	
0.6316869	-0.7241921	0.1150423	0.0738975	-0.02469704	0.002980622	0.1032246	0.08664749	
0.1032246	0.08664749	-0.02469704	0.002980622	0.1230967	0.07945904	0.6272511	-0.7258936	
-0.02469704	0.002980622	0.1032246	0.08664749	0.6272511	-0.7258936	0.1230967	0.07945904	

1.5e+008	0.1625173	0.03163086	0.2895532	-0.9007097	0.162183	0.05073972	-0.01849526	0.02301677	
0.2895532	-0.9007097	0.1625173	0.03163086	-0.01849526	0.02301677	0.162183	0.05073972	
0.162183	0.05073972	-0.01849526	0.02301677	0.1751395	0.03429479	0.2835439	-0.8997906	
-0.01849526	0.02301677	0.162183	0.05073972	0.2835439	-0.8997906	0.1751395	0.03429479	

2e+008	0.1653119	-0.02962403	-0.0838019	-0.9363057	0.1796528	-0.01431287	0.002377372	0.02854144	
-0.0838019	-0.9363057	0.1653119	-0.02962403	0.002377372	0.02854144	0.1796528	-0.01431287	
0.1796528	-0.01431287	0.002377372	0.02854144	0.1799508	-0.03225219	-0.08936092	-0.9324501	
0.002377372	0.02854144	0.1796528	-0.01431287	-0.08936092	-0.9324501	0.1799508	-0.03225219	

2.5e+008	0.1243817	-0.07535609	-0.4447671	-0.8317322	0.1478284	-0.07397616	0.0169404	0.01495078	
-0.4447671	-0.8317322	0.1243817	-0.07535609	0.0169404	0.01495078	0.1478284	-0.07397616	
0.1478284	-0.07397616	0.0169404	0.01495078	0.1375186	-0.08374901	-0.448664	-0.8259301	
0.0169404	0.01495078	0.1478284	-0.07397616	-0.448664	-0.8259301	0.1375186	-0.08374901	

3e+008	0.06086259	-0.07886544	-0.745858	-0.5911643	0.08182093	-0.09452215	0.01189708	-0.0009255294	
-0.745858	-0.5911643	0.06086259	-0.07886544	0.01189708	-0.0009255294	0.08182093	-0.09452215	
0.08182093	-0.09452215	0.01189708	-0.0009255294	0.06916883	-0.09091323	-0.7481853	-0.5842128	
0.01189708	-0.0009255294	0.08182093	-0.09452215	-0.7481853	-0.5842128	0.06916883	-0.09091323	

3.5e+008	0.01269876	-0.03263034	-0.9283983	-0.2380776	0.02089129	-0.05923166	-0.001922276	0.0008931555	
-0.9283983	-0.2380776	0.01269876	-0.03263034	-0.001922276	0.0008931555	0.02089129	-0.05923166	
0.02089129	-0.05923166	-0.001922276	0.0008931555	0.01528111	-0.04408665	-0.9291549	-0.2295247	
-0.001922276	0.0008931555	0.02089129	-0.05923166	-0.9291549	-0.2295247	0.01528111	-0.04408665	

4e+008	0.01606011	0.03620691	-0.9421115	0.164714	0.008578217	0.009799387	-0.000349041	0.01627594	
-0.9421115	0.164714	0.01606011	0.03620691	-0.000349041	0.01627594	0.008578217	0.009799387	
0.008578217	0.009799387	-0.000349041	0.01627594	0.01566953	0.02900378	-0.9395679	0.1752781	
-0.000349041	0.01627594	0.008578217	0.009799387	-0.9395679	0.1752781	0.01566953	0.02900378	

4.5e+008	0.07042055	0.07832046	-0.7837283	0.5282524	0.05247168	0.06179248	0.01935245	0.01959796	
-0.7837283	0.5282524	0.07042055	0.07832046	0.01935245	0.01959796	0.05247168	0.06179248	
0.05247168	0.06179248	0.01935245	0.01959796	0.07153186	0.07579173	-0.7754419	0.5389018	
0.01935245	0.01959796	0.05247168	0.06179248	-0.7754419	0.5389018	0.07153186	0.07579173	

5e+008	0.1360407	0.06639031	-0.500298	0.785209	0.1179874	0.06359176	0.03361077	0.001140754	
-0.500298	0.785209	0.1360407	0.06639031	0.03361077	0.001140754	0.1179874	0.06359176	
0.1179874	0.06359176	0.03361077	0.001140754	0.1421901	0.06603604	-0.4859702	0.7917953	
0.03361077	0.001140754	0.1179874	0.06359176	-0.4859702	0.7917953	0.1421901	0.06603604	

5.5e+008	0.1719442	0.01309238	-0.1513647	0.9086299	0.1647287	0.01971768	0.02642806	-0.02158495	
-0.1513647	0.9086299	0.1719442	0.01309238	0.02642806	-0.02158495	0.1647287	0.01971768	
0.1647287	0.01971768	0.02642806	-0.02158495	0.1847575	0.01078415	-0.1340884	0.907511	
0.02642806	-0.02158495	0.1647287	0.01971768	-0.1340884	0.907511	0.1847575	0.01078415	

6e+008	0.1612846	-0.0486375	0.2132734	0.8934975	0.1706394	-0.04429167	0.006131747	-0.02892392	
0.2132734	0.8934975	0.1612846	-0.0486375	0.006131747	-0.02892392	0.1706394	-0.04429167	
0.1706394	-0.04429167	0.006131747	-0.02892392	0.1800907	-0.05794817	0.2285503	0.8841467	
0.006131747	-0.02892392	0.1706394	-0.04429167	0.2285503	0.8841467	0.1800907	-0.05794817	

6.5e+008	0.1118037	-0.08627439	0.548349	0.7420665	0.1337588	-0.09820025	-0.008036219	-0.01932196	
0.548349	0.7420665	0.1118037	-0.08627439	-0.008036219	-0.01932196	0.1337588	-0.09820025	
0.1337588	-0.09820025	-0.008036219	-0.01932196	0.1328464	-0.1075256	0.5578972	0.7272493	
-0.008036219	-0.01932196	0.1337588	-0.09820025	0.5578972	0.7272493	0.1328464	-0.1075256	

7e+008	0.04979478	-0.07942953	0.8043785	0.4668664	0.07099625	-0.116665	-0.006556102	-0.007960704	
0.8043785	0.4668664	0.04979478	-0.07942953	-0.006556102	-0.007960704	0.07099625	-0.116665	
0.07099625	-0.116665	-0.006556102	-0.007960704	0.0660129	-0.115535	0.8074646	0.4502762	
-0.006556102	-0.007960704	0.07099625	-0.116665	0.8074646	0.4502762	0.0660129	-0.115535	

7.5e+008	0.0111089	-0.03068904	0.930183	0.1032034	0.01385499	-0.0921005	0.001236266	-0.0091637	
0.930183	0.1032034	0.0111089	-0.03068904	0.001236266	-0.0091637	0.01385499	-0.0921005	
0.01385499	-0.0921005	0.001236266	-0.0091637	0.01328744	-0.08027481	0.9280514	0.08698234	
0.001236266	-0.0091637	0.01385499	-0.0921005	0.9280514	0.08698234	0.01328744	-0.08027481	

8e+008	0.02050279	0.0291436	0.8922948	-0.2841113	-0.01015324	-0.0440099	-0.0007586057	-0.01963116	
0.8922948	-0.2841113	0.02050279	0.0291436	-0.0007586057	-0.01963116	-0.01015324	-0.0440099	
-0.01015324	-0.0440099	-0.0007586057	-0.01963116	0.0001023452	-0.02662154	0.8858485	-0.2998852	
-0.0007586057	-0.01963116	-0.01015324	-0.0440099	0.8858485	-0.2998852	0.0001023452	-0.02662154	

8.5e+008	0.0691006	0.05935438	0.697381	-0.6179808	-0.0004042791	-0.005276871	-0.0147685	-0.02423499	
0.697381	-0.6179808	0.0691006	0.05935438	-0.0147685	-0.02423499	-0.0004042791	-0.005276871	
-0.0004042791	-0.005276871	-0.0147685	-0.02423499	0.02249363	0.009890115	0.6854182	-0.633495	
-0.0147685	-0.02423499	-0.0004042791	-0.005276871	0.6854182	-0.633495	0.02249363	0.009890115	

9e+008	0.1195889	0.04236757	0.3887784	-0.8401431	0.0185173	0.006923175	-0.0294259	-0.01661069	
0.3887784	-0.8401431	0.1195889	0.04236757	-0.0294259	-0.01661069	0.0185173	0.006923175	
0.0185173	0.006923175	-0.0294259	-0.01661069	0.05092136	0.01266625	0.368585	-0.8530516	
-0.0294259	-0.01661069	0.0185173	0.006923175	0.368585	-0.8530516	0.05092136	0.01266625	

9.5e+008	0.1369039	-0.004928597	0.02217859	-0.9217456	0.02164177	0.002429411	-0.03738017	-0.002521434	
0.02217859	-0.9217456	0.1369039	-0.004928597	-0.03738017	-0.002521434	0.02164177	0.002429411	
0.02164177	0.002429411	-0.03738017	-0.002521434	0.05690462	-0.004973898	-0.006861042	-0.9258601	
-0.03738017	-0.002521434	0.02164177	0.002429411	-0.006861042	-0.9258601	0.05690462	-0.004973898	

1e+009	0.1109382	-0.04715427	-0.3471929	-0.8534302	0.003288221	0.00604527	-0.04007192	0.01387525	
-0.3471929	-0.8534302	0.1109382	-0.04715427	-0.04007192	0.01387525	0.003288221	0.00604527	
0.003288221	0.00604527	-0.04007192	0.01387525	0.03459404	-0.01346148	-0.3797863	-0.84152	
-0.04007192	0.01387525	0.003288221	0.00604527	-0.3797863	-0.84152	0.03459404	-0.01346148	

1.05e+009	0.06047737	-0.05326602	-0.6612068	-0.6412482	-0.01869234	0.03770545	-0.03644942	0.0347356	
-0.6612068	-0.6412482	0.06047737	-0.05326602	-0.03644942	0.0347356	-0.01869234	0.03770545	
-0.01869234	0.03770545	-0.03644942	0.0347356	0.004918477	0.009920029	-0.6859223	-0.6111108	
-0.03644942	0.0347356	-0.01869234	0.03770545	-0.6859223	-0.6111108	0.004918477	0.009920029	

1.1e+009	0.02225154	-0.01660514	-0.8607081	-0.3166207	-0.01427215	0.09406708	-0.01809306	0.056943	
-0.8607081	-0.3166207	0.02225154	-0.01660514	-0.01809306	0.056943	-0.01427215	0.09406708	
-0.01427215	0.09406708	-0.01809306	0.056943	0.0006301601	0.0609163	-0.8662849	-0.2760444	
-0.01809306	0.056943	-0.01427215	0.09406708	-0.8662849	-0.2760444	0.0006301601	0.0609163	

1.15e+009	0.02522235	0.03768299	-0.9055369	0.05771643	0.03326798	0.1455603	0.01689771	0.06501795	
-0.9055369	0.05771643	0.02522235	0.03768299	0.01689771	0.06501795	0.03326798	0.1455603	
0.03326798	0.1455603	0.01689771	0.06501795	0.03790995	0.1085246	-0.8900671	0.094818	
0.01689771	0.06501795	0.03326798	0.1455603	-0.8900671	0.094818	0.03790995	0.1085246	

1.2e+009	0.06700057	0.07207141	-0.7960188	0.4076522	0.1098911	0.1591537	0.05206432	0.04663706	
-0.7960188	0.4076522	0.06700057	0.07207141	0.05206432	0.04663706	0.1098911	0.1591537	
0.1098911	0.1591537	0.05206432	0.04663706	0.1013909	0.1211176	-0.7673066	0.431735	
0.05206432	0.04663706	0.1098911	0.1591537	-0.7673066	0.431735	0.1013909	0.1211176	

1.25e+009	0.1192673	0.06659642	-0.5662762	0.677812	0.182278	0.1238408	0.06607915	0.01027894	
-0.5662762	0.677812	0.1192673	0.06659642	0.06607915	0.01027894	0.182278	0.1238408	
0.182278	0.1238408	0.06607915	0.01027894	0.1587526	0.09026986	-0.5332918	0.6878842	
0.06607915	0.01027894	0.182278	0.1238408	-0.5332918	0.6878842	0.1587526	0.09026986	

1.3e+009	0.1519906	0.02726017	-0.2592072	0.8395577	0.2206237	0.05299002	0.05446494	-0.02146401	
-0.2592072	0.8395577	0.1519906	0.02726017	0.05446494	-0.02146401	0.2206237	0.05299002	
0.2206237	0.05299002	0.05446494	-0.02146401	0.1827799	0.0307784	-0.2263497	0.8384888	
0.05446494	-0.02146401	0.2206237	0.05299002	-0.2263497	0.8384888	0.1827799	0.0307784	

1.35e+009	0.1473393	-0.02413973	0.08629938	0.8782973	0.20909	-0.02606463	0.03310186	-0.03317151	
0.08629938	0.8782973	0.1473393	-0.02413973	0.03310186	-0.03317151	0.20909	-0.02606463	
0.20909	-0.02606463	0.03310186	-0.03317151	0.1606633	-0.02959684	0.1184781	0.8674532	
0.03310186	-0.03317151	0.20909	-0.02606463	0.1184781	0.8674532	0.1606633	-0.02959684	

1.4e+009	0.1033779	-0.05769056	0.4306332	0.7825696	0.1495662	-0.07885967	0.02290344	-0.03108964	
0.4306332	0.7825696	0.1033779	-0.05769056	0.02290344	-0.03108964	0.1495662	-0.07885967	
0.1495662	-0.07885967	0.02290344	-0.03108964	0.0982773	-0.05681743	0.4612257	0.7594894	
0.02290344	-0.03108964	0.1495662	-0.07885967	0.4612257	0.7594894	0.0982773	-0.05681743	

1.45e+009	0.04209198	-0.04314328	0.720131	0.5472716	0.07013877	-0.07340881	0.02594262	-0.03876825	
0.720131	0.5472716	0.04209198	-0.04314328	0.02594262	-0.03876825	0.07013877	-0.07340881	
0.07013877	-0.07340881	0.02594262	-0.03876825	0.02901246	-0.02194759	0.7427173	0.5081682	
0.02594262	-0.03876825	0.07013877	-0.07340881	0.7427173	0.5081682	0.02901246	-0.02194759	

1.5e+009	0.0119191	0.02385595	0.8843134	0.1988925	0.02445323	-0.00822767	0.01502359	-0.06606385	
0.8843134	0.1988925	0.0119191	0.02385595	0.01502359	-0.06606385	0.02445323	-0.00822767	
0.02445323	-0.00822767	0.01502359	-0.06606385	0.01033202	0.06828007	0.8865227	0.1465951	
0.01502359	-0.06606385	0.02445323	-0.00822767	0.8865227	0.1465951	0.01033202	0.06828007	

1.55e+009	0.04945485	0.09808672	0.8746253	-0.183364	0.04948195	0.06671625	-0.03023884	-0.08241933	
0.8746253	-0.183364	0.04945485	0.09808672	-0.03023884	-0.08241933	0.04948195	0.06671625	
0.04948195	0.06671625	-0.03023884	-0.08241933	0.07565635	0.1528073	0.8477004	-0.2341915	
-0.03023884	-0.08241933	0.04948195	0.06671625	0.8477004	-0.2341915	0.07565635	0.1528073	

1.6e+009	0.1345879	0.1233104	0.7086374	-0.5081791	0.1221232	0.09417105	-0.08291331	-0.05475229	
0.7086374	-0.5081791	0.1345879	0.1233104	-0.08291331	-0.05475229	0.1221232	0.09417105	
0.1221232	0.09417105	-0.08291331	-0.05475229	0.1908212	0.1686074	0.6575418	-0.5390755	
-0.08291331	-0.05475229	0.1221232	0.09417105	0.6575418	-0.5390755	0.1908212	0.1686074	

1.65e+009	0.217078	0.08605666	0.4435194	-0.7270491	0.1914519	0.06327621	-0.1016908	0.00524555	
0.4435194	-0.7270491	0.217078	0.08605666	-0.1016908	0.00524555	0.1914519	0.06327621	
0.1914519	0.06327621	-0.1016908	0.00524555	0.2939701	0.1074218	0.384209	-0.7279578	
-0.1016908	0.00524555	0.1914519	0.06327621	0.384209	-0.7279578	0.2939701	0.1074218	

1.7e+009	0.2627716	0.007596049	0.1307375	-0.8282934	0.2259	-0.002801784	-0.07619544	0.06034722	
0.1307375	-0.8282934	0.2627716	0.007596049	-0.07619544	0.06034722	0.2259	-0.002801784	
0.2259	-0.002801784	-0.07619544	0.06034722	0.3472683	-0.001137631	0.08035856	-0.8012176	
-0.07619544	0.06034722	0.2259	-0.002801784	0.08035856	-0.8012176	0.3472683	-0.001137631	

1.75e+009	0.2600921	-0.08376866	-0.1910236	-0.8122412	0.2176945	-0.07639275	-0.02586707	0.08339979	
-0.1910236	-0.8122412	0.2600921	-0.08376866	-0.02586707	0.08339979	0.2176945	-0.07639275	
0.2176945	-0.07639275	-0.02586707	0.08339979	0.3400428	-0.1228648	-0.2211363	-0.7673431	
-0.02586707	0.08339979	0.2176945	-0.07639275	-0.2211363	-0.7673431	0.3400428	-0.1228648	

1.8e+009	0.2112069	-0.1623878	-0.4874809	-0.6827317	0.1719705	-0.1351639	0.02021294	0.0703983	
-0.4874809	-0.6827317	0.2112069	-0.1623878	0.02021294	0.0703983	0.1719705	-0.1351639	
0.1719705	-0.1351639	0.02021294	0.0703983	0.2760043	-0.2288409	-0.4936753	-0.6327452	
0.02021294	0.0703983	0.1719705	-0.1351639	-0.4936753	-0.6327452	0.2760043	-0.2288409	

1.85e+009	0.1290317	-0.2063191	-0.7225504	-0.4485014	0.1019294	-0.1620218	0.04087935	0.03787187	
-0.7225504	-0.4485014	0.1290317	-0.2063191	0.04087935	0.03787187	0.1019294	-0.1620218	
0.1019294	-0.1620218	0.04087935	0.03787187	0.168716	-0.2943681	-0.7077518	-0.404709	
0.04087935	0.03787187	0.1019294	-0.1620218	-0.7077518	-0.404709	0.168716	-0.2943681	

1.9e+009	0.03807494	-0.2023969	-0.855708	-0.1301149	0.02935048	-0.1475164	0.03461679	0.01111505	
-0.855708	-0.1301149	0.03807494	-0.2023969	0.03461679	0.01111505	0.02935048	-0.1475164	
0.02935048	-0.1475164	0.03461679	0.01111505	0.04357571	-0.3017096	-0.8274482	-0.09967644	
0.03461679	0.01111505	0.02935048	-0.1475164	-0.8274482	-0.09967644	0.04357571	-0.3017096	

1.95e+009	-0.03172314	-0.1561658	-0.8490491	0.2288681	-0.01910216	-0.09837424	0.01976116	0.005496073	
-0.8490491	0.2288681	-0.03172314	-0.1561658	0.01976116	0.005496073	-0.01910216	-0.09837424	
-0.01910216	-0.09837424	0.01976116	0.005496073	-0.06462817	-0.2505101	-0.8159915	0.2449222	
0.01976116	0.005496073	-0.01910216	-0.09837424	-0.8159915	0.2449222	-0.06462817	-0.2505101	

2e+009	-0.06295407	-0.09343942	-0.6884026	0.5607368	-0.02828312	-0.04087698	0.01717085	0.01407012	
-0.6884026	0.5607368	-0.06295407	-0.09343942	0.01717085	0.01407012	-0.02828312	-0.04087698	
-0.02828312	-0.04087698	0.01717085	0.01407012	-0.1283512	-0.164487	-0.6554289	0.5658431	
0.01717085	0.01407012	-0.02828312	-0.04087698	-0.6554289	0.5658431	-0.1283512	-0.164487	

2.05e+009	-0.06394175	-0.04147876	-0.4000646	0.7955879	-0.009497344	-0.003259483	0.03033826	0.01788489	
-0.4000646	0.7955879	-0.06394175	-0.04147876	0.03033826	0.01788489	-0.009497344	-0.003259483	
-0.009497344	-0.003259483	0.03033826	0.01788489	-0.1456995	-0.0769103	-0.3673619	0.7920485	
0.03033826	0.01788489	-0.009497344	-0.003259483	-0.3673619	0.7920485	-0.1456995	-0.0769103	

2.1e+009	-0.056992	-0.007294271	-0.04110555	0.8884812	0.01017941	0.008279648	0.04719117	0.00638237	
-0.04110555	0.8884812	-0.056992	-0.007294271	0.04719117	0.00638237	0.01017941	0.008279648	
0.01017941	0.008279648	0.04719117	0.00638237	-0.1349889	-0.006022873	-0.009076988	0.8746782	
0.04719117	0.00638237	0.01017941	0.008279648	-0.009076988	0.8746782	-0.1349889	-0.006022873	

2.15e+009	-0.05492849	0.02207168	0.3222639	0.8259719	0.01372541	0.01088044	0.0551198	-0.01813902	
0.3222639	0.8259719	-0.05492849	0.02207168	0.0551198	-0.01813902	0.01372541	0.01088044	
0.01372541	0.01088044	0.0551198	-0.01813902	-0.1121842	0.04999196	0.3492858	0.7999857	
0.0551198	-0.01813902	0.01372541	0.01088044	0.3492858	0.7999857	-0.1121842	0.04999196	

2.2e+009	-0.0505979	0.06077761	0.6264087	0.6211152	0.006953797	0.02513079	0.0470273	-0.04756239	
0.6264087	0.6211152	-0.0505979	0.06077761	0.0470273	-0.04756239	0.006953797	0.02513079	
0.006953797	0.02513079	0.0470273	-0.04756239	-0.07903146	0.09757532	0.6422528	0.5851945	
0.0470273	-0.04756239	0.006953797	0.02513079	0.6422528	0.5851945	-0.07903146	0.09757532	

2.25e+009	-0.02655945	0.1061562	0.8176396	0.3122679	0.009826796	0.05546044	0.02103745	-0.07079832	
0.8176396	0.3122679	-0.02655945	0.1061562	0.02103745	-0.07079832	0.009826796	0.05546044	
0.009826796	0.05546044	0.02103745	-0.07079832	-0.03043421	0.1331075	0.8190555	0.2722739	
0.02103745	-0.07079832	0.009826796	0.05546044	0.8190555	0.2722739	-0.03043421	0.1331075	

2.3e+009	0.02393061	0.1377971	0.8655255	-0.04160824	0.03651566	0.08656347	-0.01623087	-0.07602225	
0.8655255	-0.04160824	0.02393061	0.1377971	-0.01623087	-0.07602225	0.03651566	0.08656347	
0.03651566	0.08656347	-0.01623087	-0.07602225	0.03014983	0.1432434	0.8529858	-0.08050445	
-0.01623087	-0.07602225	0.03651566	0.08656347	0.8529858	-0.08050445	0.03014983	0.1432434	

2.35e+009	0.0860763	0.1356017	0.7707277	-0.3782414	0.08256254	0.09729554	-0.04986864	-0.05961179	
0.7707277	-0.3782414	0.0860763	0.1356017	-0.04986864	-0.05961179	0.08256254	0.09729554	
0.08256254	0.09729554	-0.04986864	-0.05961179	0.0842722	0.1190808	0.7449497	-0.4131443	
-0.04986864	-0.05961179	0.08256254	0.09729554	0.7449497	-0.4131443	0.0842722	0.1190808	

2.4e+009	0.1328071	0.09686417	0.5566178	-0.6480405	0.1285046	0.07665142	-0.06761382	-0.03113875	
0.5566178	-0.6480405	0.1328071	0.09686417	-0.06761382	-0.03113875	0.1285046	0.07665142	
0.1285046	0.07665142	-0.06761382	-0.03113875	0.107581	0.0689021	0.5162754	-0.6754418	
-0.06761382	-0.03113875	0.1285046	0.07665142	0.5162754	-0.6754418	0.107581	0.0689021	

2.45e+009	0.1404299	0.03900403	0.2558386	-0.8162499	0.1511732	0.03043383	-0.07067873	-0.004767458	
0.2558386	-0.8162499	0.1404299	0.03900403	-0.07067873	-0.004767458	0.1511732	0.03043383	
0.1511732	0.03043383	-0.07067873	-0.004767458	0.08462655	0.01905242	0.200005	-0.8280552	
-0.07067873	-0.004767458	0.1511732	0.03043383	0.200005	-0.8280552	0.08462655	0.01905242	

2.5e+009	0.1002566	-0.005225164	-0.09342389	-0.8557266	0.1353044	-0.01851099	-0.07099638	0.01604071	
-0.09342389	-0.8557266	0.1002566	-0.005225164	-0.07099638	0.01604071	0.1353044	-0.01851099	
0.1353044	-0.01851099	-0.07099638	0.01604071	0.02117435	0.006117925	-0.1587127	-0.8392011	
-0.07099638	0.01604071	0.1353044	-0.01851099	-0.1587127	-0.8392011	0.02117435	0.006117925	

2.55e+009	0.03084629	0.002228534	-0.4389841	-0.7453994	0.08816487	-0.03733128	-0.07277873	0.04400291	
-0.4389841	-0.7453994	0.03084629	0.002228534	-0.07277873	0.04400291	0.08816487	-0.03733128	
