!
! FCI USA LLC
! FCI_CC_Long_Link_Pair_8_to_Pair_9_FEXT.s4p
! 
! PART DESCRIPTION: FCI Connector Concept 0.70 m Simulated Channel Model
!
! FREQUENCY RANGE: 50 MHz to 30 GHz in 50 MHz frequency steps
! 
! PORT DEFINITIONS: 
! Port   1  ----->  TX   Pin K4(Side A) -- Pin A5(Side B)    RX  <-----  Port   2
! Port   3  ----->  TX   Pin L4(Side A) -- Pin B5(Side B)    RX  <-----  Port   4
! 
! Information
!
! FCI endeavors to use its reasonable efforts to place accurate and
! up-to-date information in this Touchstone file.  However, this file is
! provided on an as is basis.  FCI GIVES NO WARRANTY, EXPRESS OR 
! IMPLIED, WITH RESPECT TO ANY INFORMATION PROVIDED IN THIS FILE,
! INCLUDING BUT NOT LIMITED TO THE IMPLIED WARRANTIES OF 
! MERCHANTABILITY, FITNESS FOR A PARTICULAR PURPOSE OR NON-INFRINGEMENT.
! FCI SHALL NOT BE LIABLE FOR ANY DIRECT, SPECIAL, INDIRECT, 
! CONSEQUENTIAL, PUNITIVE OR OTHER DAMAGES BASED ON USE OF THIS FILE.
!
! -----------------------------------------------------------------------------
!
#	Hz	S	RI	R	50
5e+007	0.07393523	0.0784738	6.877517e-006	-0.0002415811	0.05399526	0.08041076	-3.245275e-005	-0.0001663971	
6.877517e-006	-0.0002415811	0.06212921	0.07108721	-4.142065e-005	-3.124001e-005	0.04386693	0.0731204	
0.05399526	0.08041076	-4.142065e-005	-3.124001e-005	0.07577968	0.07935463	-4.187584e-005	-0.0001596403	
-3.245275e-005	-0.0001663971	0.04386693	0.0731204	-4.187584e-005	-0.0001596403	0.0632469	0.07229349	

1e+008	0.01116965	-0.001026932	-2.992176e-005	0.0003725274	0.01202495	0.009984743	-1.002257e-005	0.0002781116	
-2.992176e-005	0.0003725274	0.01119173	-0.02334539	-7.095674e-006	0.000143482	0.01311699	-0.009981964	
0.01202495	0.009984743	-7.095674e-006	0.000143482	0.01140431	0.003419935	4.116898e-005	0.0002549269	
-1.002257e-005	0.0002781116	0.01311699	-0.009981964	4.116898e-005	0.0002549269	0.01230426	-0.02647923	

1.5e+008	0.1724603	-0.007202293	0.0003853215	-0.0001762306	0.1748634	0.009869351	0.000254935	-0.0001323974	
0.0003853215	-0.0001762306	0.1554517	0.01183347	0.0002467027	-3.153105e-005	0.1585578	0.03020907	
0.1748634	0.009869351	0.0002467027	-3.153105e-005	0.1773895	-0.006889193	0.0002193945	-0.0001512481	
0.000254935	-0.0001323974	0.1585578	0.03020907	0.0002193945	-0.0001512481	0.1597151	0.01167609	

2e+008	0.01981941	-0.01761055	-0.0002315822	-0.0002447592	0.02067568	-0.02724699	-0.0001248245	-0.0001699112	
-0.0002315822	-0.0002447592	0.02445899	-0.03615877	6.353051e-006	-0.0002323481	0.03128851	-0.04590658	
0.02067568	-0.02724699	6.353051e-006	-0.0002323481	0.02088811	-0.01766218	-7.500147e-005	-9.948499e-005	
-0.0001248245	-0.0001699112	0.03128851	-0.04590658	-7.500147e-005	-9.948499e-005	0.02645778	-0.04288403	

2.5e+008	0.1647769	0.003615371	-0.00013319	0.0001777815	0.1696173	0.01512355	-0.0001565016	7.128105e-005	
-0.00013319	0.0001777815	0.1413495	0.03357953	-0.000337338	2.340386e-005	0.1429493	0.04441586	
0.1696173	0.01512355	-0.000337338	2.340386e-005	0.1732939	0.004188634	-0.0001749144	1.251224e-005	
-0.0001565016	7.128105e-005	0.1429493	0.04441586	-0.0001749144	1.251224e-005	0.1410869	0.03144016	

3e+008	0.02969454	-0.03859642	-7.311405e-005	-3.788664e-005	0.03302427	-0.07755302	-7.340873e-005	8.062703e-005	
-7.311405e-005	-3.788664e-005	0.04082467	-0.0442936	-7.553039e-005	0.0002316483	0.05875478	-0.07959126	
0.03302427	-0.07755302	-7.553039e-005	0.0002316483	0.03269579	-0.05002254	-0.000149431	0.0001588645	
-7.340873e-005	8.062703e-005	0.05875478	-0.07959126	-0.000149431	0.0001588645	0.0422894	-0.0510028	

3.5e+008	0.1482276	0.01143917	0.0001984849	0.000384445	0.1148742	0.01389325	0.0002659279	0.000254459	
0.0001984849	0.000384445	0.1347486	0.05445874	0.0003665601	0.0001818114	0.09661067	0.03989166	
0.1148742	0.01389325	0.0003665601	0.0001818114	0.14739	0.009031196	0.0003643878	0.0002104297	
0.0002659279	0.000254459	0.09661067	0.03989166	0.0003643878	0.0002104297	0.1286076	0.0494647	

4e+008	0.03519587	-0.04929782	0.0004638034	-0.0004681996	0.03380431	-0.07588226	0.0002554764	-0.0004150042	
0.0004638034	-0.0004681996	0.06589371	-0.0602829	0.0002453043	-0.0004341382	0.07216188	-0.07566204	
0.03380431	-0.07588226	0.0002453043	-0.0004341382	0.03723925	-0.06230026	0.0001673295	-0.0004530161	
0.0002554764	-0.0004150042	0.07216188	-0.07566204	0.0001673295	-0.0004530161	0.0633881	-0.06140352	

4.5e+008	0.1217922	0.01502855	-0.0006132824	-0.0003948048	0.05521108	0.01110832	-0.0004398122	-0.0002282215	
-0.0006132824	-0.0003948048	0.1176507	0.06604253	-0.000414767	-0.0003020244	0.0553112	0.02726108	
0.05521108	0.01110832	-0.000414767	-0.0003020244	0.1073677	0.009387701	-0.0003760021	-0.0001486415	
-0.0004398122	-0.0002282215	0.0553112	0.02726108	-0.0003760021	-0.0001486415	0.1101363	0.05981537	

5e+008	0.03226247	-0.0364268	-0.0003248192	0.0007530257	0.01767321	-0.01027127	-0.0002510437	0.0005228937	
-0.0003248192	0.0007530257	0.09977362	-0.07550484	-0.0004382172	0.0005875964	0.05890915	-0.04053503	
0.01767321	-0.01027127	-0.0004382172	0.0005875964	0.02900141	-0.03714452	-0.0002673488	0.000439653	
-0.0002510437	0.0005228937	0.05890915	-0.04053503	-0.0002673488	0.000439653	0.08995125	-0.06887987	

5.5e+008	0.1094359	0.02331121	0.0005531331	0.0002108661	0.06161163	0.02658531	0.0004167362	0.0002403771	
0.0005531331	0.0002108661	0.08537517	0.05494338	0.0005222942	0.0004238157	0.05044885	0.04143421	
0.06161163	0.02658531	0.0005222942	0.0004238157	0.09178434	0.01831634	0.0003605653	0.0003197107	
0.0004167362	0.0002403771	0.05044885	0.04143421	0.0003605653	0.0003197107	0.08402887	0.05502739	

6e+008	0.03037171	-0.01094273	0.0004246556	-0.0005577787	0.006379427	0.0529754	0.0004089379	-0.0005187203	
0.0004246556	-0.0005577787	0.1233668	-0.0717691	0.0006031378	-0.0006971352	0.05167439	-0.01448499	
0.006379427	0.0529754	0.0006031378	-0.0006971352	0.0193113	0.005859568	0.0005097284	-0.0005477226	
0.0004089379	-0.0005187203	0.05167439	-0.01448499	0.0005097284	-0.0005477226	0.1106544	-0.06258877	

6.5e+008	0.1253968	0.04068958	-0.0004967657	-0.0004287553	0.1359593	0.06601267	-0.0004964424	-0.0003402724	
-0.0004967657	-0.0004287553	0.05546915	0.02789715	-0.0006640725	-0.0004934911	0.0667495	0.08407922	
0.1359593	0.06601267	-0.0006640725	-0.0004934911	0.1228779	0.0456822	-0.0005652655	-0.0004119482	
-0.0004964424	-0.0003402724	0.0667495	0.08407922	-0.0005652655	-0.0004119482	0.06274312	0.03881816	

7e+008	0.03877919	-0.008514894	-0.0007550569	0.0005223829	0.03085139	0.03515686	-0.0005917953	0.0005350934	
-0.0007550569	0.0005223829	0.1225527	-0.05116414	-0.0007494549	0.0006977544	0.09506798	-0.01590164	
0.03085139	0.03515686	-0.0007494549	0.0006977544	0.0298422	0.0130701	-0.0006142908	0.0006501651	
-0.0005917953	0.0005350934	0.09506798	-0.01590164	-0.0006142908	0.0006501651	0.1183463	-0.04771572	

7.5e+008	0.1510815	0.05882625	0.0007668236	0.0006615898	0.1969792	0.09257356	0.0007206925	0.0004057256	
0.0007668236	0.0006615898	0.0416651	0.01226674	0.0008744357	0.0005738845	0.06987999	0.1009802	
0.1969792	0.09257356	0.0008744357	0.0005738845	0.1685098	0.07307895	0.0008075096	0.0003584203	
0.0007206925	0.0004057256	0.06987999	0.1009802	0.0008075096	0.0003584203	0.0521277	0.02824219	

8e+008	0.07542332	-0.04717163	0.0007326115	-0.0005756763	0.09665552	-0.05787614	0.0004683692	-0.000477051	
0.0007326115	-0.0005756763	0.1115132	-0.02875729	0.0006287191	-0.0005983409	0.1725477	-0.01983036	
0.09665552	-0.05787614	0.0006287191	-0.0005983409	0.07903374	-0.0411468	0.0003744685	-0.0004953797	
0.0004683692	-0.000477051	0.1725477	-0.01983036	0.0003744685	-0.0004953797	0.1224794	-0.0319176	

8.5e+008	0.1545611	0.06079985	-0.0008600728	-0.0008161108	0.1787385	0.0726674	-0.0007018678	-0.000572881	
-0.0008600728	-0.0008161108	0.03434264	0.01676698	-0.0008014781	-0.0007665153	0.05614067	0.04432819	
0.1787385	0.0726674	-0.0008014781	-0.0007665153	0.1778221	0.07359112	-0.0006445166	-0.0005285331	
-0.0007018678	-0.000572881	0.05614067	0.04432819	-0.0006445166	-0.0005285331	0.04087567	0.02334914	

9e+008	0.1206717	-0.09056765	-0.000557393	0.0007046452	0.152117	-0.1271217	-0.0003777067	0.0005486996	
-0.000557393	0.0007046452	0.1169467	-0.01079868	-0.0005823425	0.0005879864	0.2073796	-0.01106732	
0.152117	-0.1271217	-0.0005823425	0.0005879864	0.1405274	-0.1048522	-0.0003915536	0.0004608908	
-0.0003777067	0.0005486996	0.2073796	-0.01106732	-0.0003915536	0.0004608908	0.1343303	-0.01678529	

9.5e+008	0.1027006	0.03026926	0.0005049069	0.0006824391	0.08309206	0.009640143	0.000380073	0.0005338611	
0.0005049069	0.0006824391	0.03005328	0.0132365	0.0004213839	0.0008450368	0.05340757	-0.05694295	
0.08309206	0.009640143	0.0004213839	0.0008450368	0.1130482	0.0274591	0.0003424978	0.0006601558	
0.000380073	0.0005338611	0.05340757	-0.05694295	0.0003424978	0.0006601558	0.03320436	0.001132951	

1e+009	0.1255645	-0.1045496	0.0006659994	-0.000406432	0.131583	-0.1200307	0.0005754379	-0.0003541075	
0.0006659994	-0.000406432	0.1389078	0.01194094	0.0008875392	-0.0004436587	0.1576382	-0.004051069	
0.131583	-0.1200307	0.0008875392	-0.0004436587	0.1455097	-0.1279518	0.0006932813	-0.0004122483	
0.0005754379	-0.0003541075	0.1576382	-0.004051069	0.0006932813	-0.0004122483	0.1459568	0.005153152	

1.05e+009	0.03446692	-0.02198287	-0.0001144281	-0.0007521247	-0.0008563977	-0.04817775	-0.0002029311	-0.0006409497	
-0.0001144281	-0.0007521247	0.039373	-0.01370622	-0.0003012109	-0.0009269598	0.05971162	-0.1070442	
-0.0008563977	-0.04817775	-0.0003012109	-0.0009269598	0.02242505	-0.04600672	-0.000339136	-0.0006961002	
-0.0002029311	-0.0006409497	0.05971162	-0.1070442	-0.000339136	-0.0006961002	0.04102359	-0.03366304	

1.1e+009	0.07493279	-0.06264477	-0.001093552	-1.96415e-005	0.05222802	-0.04638964	-0.0008569511	0.0001368155	
-0.001093552	-1.96415e-005	0.1412271	0.03572853	-0.001137992	0.0001779874	0.06501831	-0.01087458	
0.05222802	-0.04638964	-0.001137992	0.0001779874	0.07486588	-0.07674134	-0.0008195809	0.0002254693	
-0.0008569511	0.0001368155	0.06501831	-0.01087458	-0.0008195809	0.0002254693	0.127474	0.02550565	

1.15e+009	0.009078045	-0.02068605	8.063393e-005	0.001301006	-0.005527	-0.01993234	0.0002141319	0.0009583443	
8.063393e-005	0.001301006	0.06236455	-0.04642561	0.0002345072	0.001211622	0.04250212	-0.06667871	
-0.005527	-0.01993234	0.0002345072	0.001211622	-0.0150574	-0.04704462	0.0002522331	0.0008833093	
0.0002141319	0.0009583443	0.04250212	-0.06667871	0.0002522331	0.0008833093	0.05766029	-0.05351719	

1.2e+009	0.01016155	0.007393049	0.001393275	-0.0001086561	-0.007156283	0.02723045	0.0009870044	-0.0002102275	
0.001393275	-0.0001086561	0.113672	0.03985889	0.001258777	-0.0001002088	0.02092333	-0.005085978	
-0.007156283	0.02723045	0.001258777	-0.0001002088	-0.01587279	0.01432559	0.0009265203	-0.0001545451	
0.0009870044	-0.0002102275	0.02092333	-0.005085978	0.0009265203	-0.0001545451	0.09138682	0.02886407	

1.25e+009	0.05199854	0.0573069	-0.0002096196	-0.001411822	0.05695439	0.07455031	-0.000212079	-0.0009902665	
-0.0002096196	-0.001411822	0.08280692	-0.05288216	-6.586624e-005	-0.001356545	0.009085931	0.00942288	
0.05695439	0.07455031	-6.586624e-005	-0.001356545	0.03459027	0.05424038	-0.0001246514	-0.001003752	
-0.000212079	-0.0009902665	0.009085931	0.00942288	-0.0001246514	-0.001003752	0.06713699	-0.03649696	

1.3e+009	0.01956726	0.03360048	-0.001327738	0.0001472082	0.02858541	0.03485488	-0.00103041	0.0001098449	
-0.001327738	0.0001472082	0.08616208	0.02845973	-0.001471099	-1.635378e-005	0.05644336	0.0459186	
0.02858541	0.03485488	-0.001471099	-1.635378e-005	-0.01226222	0.05603397	-0.001131236	5.369415e-005	
-0.00103041	0.0001098449	0.05644336	0.0459186	-0.001131236	5.369415e-005	0.07849086	0.02780281	

1.35e+009	0.1164123	0.1360044	0.0001336853	0.001266856	0.1144132	0.1308919	0.0001961018	0.001058168	
0.0001336853	0.001266856	0.08398513	-0.03759332	0.0001091202	0.001513388	0.01538792	0.03721292	
0.1144132	0.1308919	0.0001091202	0.001513388	0.118369	0.1628365	0.0002213883	0.001174252	
0.0001961018	0.001058168	0.01538792	0.03721292	0.0002213883	0.001174252	0.06417583	-0.01236819	

1.4e+009	0.1296928	-0.003132462	0.001105833	0.0001606645	0.1357913	-0.0109953	0.0008982956	-3.676976e-005	
0.001105833	0.0001606645	0.08061948	0.02596123	0.001326682	5.399099e-005	0.1123903	0.1102661	
0.1357913	-0.0109953	0.001326682	5.399099e-005	0.1213074	0.01508339	0.0009750285	-0.0001151246	
0.0008982956	-3.676976e-005	0.1123903	0.1102661	0.0009750285	-0.0001151246	0.09537107	0.04224941	

1.45e+009	0.1395486	0.128968	0.0003042695	-0.001399867	0.1192609	0.09705848	5.908629e-005	-0.001094952	
0.0003042695	-0.001399867	0.08412043	-0.031351	0.0001255489	-0.001529965	0.0937852	0.0008072189	
0.1192609	0.09705848	0.0001255489	-0.001529965	0.1585279	0.163134	-3.154173e-005	-0.001131231	
5.908629e-005	-0.001094952	0.0937852	0.0008072189	-3.154173e-005	-0.001131231	0.07791488	-0.02025273	

1.5e+009	0.2431551	-0.04854836	-0.001281641	-0.0002477993	0.2040746	-0.0396107	-0.0009354731	2.566802e-006	
-0.001281641	-0.0002477993	0.08267281	0.04037643	-0.001246888	-8.33068e-005	0.1264415	0.1132646	
0.2040746	-0.0396107	-0.001246888	-8.33068e-005	0.2672473	-0.04374688	-0.0008939756	8.619762e-005	
-0.0009354731	2.566802e-006	0.1264415	0.1132646	-0.0008939756	8.619762e-005	0.106436	0.06377435	

1.55e+009	0.09882007	-0.001514303	-0.0005260511	0.001366261	0.07419672	-0.003367706	-0.0002905703	0.0009662706	
-0.0005260511	0.001366261	0.1095359	-0.03357093	-0.0004881983	0.001276497	0.189515	-0.03791866	
0.07419672	-0.003367706	-0.0004881983	0.001276497	0.1174742	0.01398173	-0.0002837849	0.0009082664	
-0.0002905703	0.0009662706	0.189515	-0.03791866	-0.0002837849	0.0009082664	0.1278891	-0.04004439	

1.6e+009	0.24314	-0.08008731	0.001439654	0.0003347472	0.1803552	-0.04757965	0.001072541	0.0001851402	
0.001439654	0.0003347472	0.06568906	0.0404236	0.001369036	0.0004085891	0.09268306	0.02976556	
0.1803552	-0.04757965	0.001369036	0.0004085891	0.2806056	-0.08942893	0.001023824	0.0002294444	
0.001072541	0.0001851402	0.09268306	0.02976556	0.001023824	0.0002294444	0.07999117	0.04852842	

1.65e+009	0.05004173	-0.1533233	0.0004053242	-0.001115547	0.04839307	-0.08579955	0.0002631846	-0.000881248	
0.0004053242	-0.001115547	0.142637	-0.03007118	0.0005263859	-0.001141725	0.205204	-0.0485543	
0.04839307	-0.08579955	0.0005263859	-0.001141725	0.06245956	-0.1754413	0.0003325241	-0.0009017887	
0.0002631846	-0.000881248	0.205204	-0.0485543	0.0003325241	-0.0009017887	0.1707228	-0.04453905	

1.7e+009	0.1039695	-0.0671893	-0.001057032	-0.0007482223	0.1000687	-0.03041669	-0.0008855009	-0.0004710006	
-0.001057032	-0.0007482223	0.04723625	-0.006139963	-0.00113257	-0.0008557451	0.05966941	-0.08033699	
0.1000687	-0.03041669	-0.00113257	-0.0008557451	0.1264834	-0.08492991	-0.0009391362	-0.0005137822	
-0.0008855009	-0.0004710006	0.05966941	-0.08033699	-0.0009391362	-0.0005137822	0.05096766	-0.02878585	

1.75e+009	0.004944313	-0.1549486	-0.00083583	0.001045361	0.0312095	-0.06792065	-0.0005146515	0.0008804808	
-0.00083583	0.001045361	0.1437316	-0.01264953	-0.0009052271	0.001198052	0.1273643	-0.0392495	
0.0312095	-0.06792065	-0.0009052271	0.001198052	0.002408796	-0.1991023	-0.0004979385	0.0009791374	
-0.0005146515	0.0008804808	0.1273643	-0.0392495	-0.0004979385	0.0009791374	0.152015	-0.02649324	

1.8e+009	-0.05788664	-0.02549946	0.0009094335	0.001045646	0.03297611	-0.007582022	0.000800898	0.0006656152	
0.0009094335	0.001045646	0.04570689	-0.05153928	0.001049533	0.001042197	0.03952247	-0.1051481	
0.03297611	-0.007582022	0.001049533	0.001042197	-0.07607433	-0.04135662	0.0008396	0.0005756238	
0.000800898	0.0006656152	0.03952247	-0.1051481	0.0008396	0.0005756238	0.04289564	-0.0856766	

1.85e+009	-0.01438681	0.008647651	0.001339172	-0.00100651	0.02780464	0.01156918	0.0008469888	-0.0009042445	
0.001339172	-0.00100651	0.09486058	0.003176195	0.001286045	-0.001100799	0.02804609	-0.02349982	
0.02780464	0.01156918	0.001286045	-0.001100799	-0.03083266	-0.02031699	0.0007639853	-0.0008575688	
0.0008469888	-0.0009042445	0.02804609	-0.02349982	0.0007639853	-0.0008575688	0.06734136	-0.01020121	

1.9e+009	-0.05759153	0.03016154	-0.001167591	-0.001376937	0.05293556	0.01312909	-0.000996835	-0.0008154189	
-0.001167591	-0.001376937	0.04769246	-0.04315778	-0.001176458	-0.001328181	0.01691395	-0.03020867	
0.05293556	0.01312909	-0.001176458	-0.001328181	-0.1016435	0.02809003	-0.0008960332	-0.0008169501	
-0.000996835	-0.0008154189	0.01691395	-0.03020867	-0.0008960332	-0.0008169501	0.03766617	-0.05143841	

1.95e+009	0.008938005	0.1786758	-0.0013421	0.001129685	0.04333387	0.0606389	-0.0007851007	0.0009313523	
-0.0013421	0.001129685	0.05677269	0.01113102	-0.001318244	0.001109091	0.01027392	0.008212863	
0.04333387	0.0606389	-0.001318244	0.001109091	-0.01061639	0.1900603	-0.0008482927	0.0008815485	
-0.0007851007	0.0009313523	0.01027392	0.008212863	-0.0008482927	0.0008815485	0.01778749	0.001158458	

2e+009	0.1173441	0.07783869	0.001025139	0.001418048	0.120115	0.02393944	0.0008363532	0.0008365999	
0.001025139	0.001418048	0.04212583	0.008124671	0.0009386781	0.001429009	0.007443268	0.05643112	
0.120115	0.02393944	0.0009386781	0.001429009	0.08507395	0.08937244	0.0008353256	0.0008985129	
0.0008363532	0.0008365999	0.007443268	0.05643112	0.0008353256	0.0008985129	0.022688	0.03863013	

2.05e+009	0.06809994	0.1746987	0.001443693	-0.001121944	0.05986185	0.03618919	0.0008859561	-0.0008445724	
0.001443693	-0.001121944	0.0794985	0.03334888	0.001575693	-0.001015039	0.08149585	0.05982069	
0.05986185	0.03618919	0.001575693	-0.001015039	0.05875519	0.2161987	0.000931726	-0.0008660072	
0.0008859561	-0.0008445724	0.08149585	0.05982069	0.000931726	-0.0008660072	0.06852434	0.03670906	

2.1e+009	0.2839922	0.0882347	-0.0008822874	-0.001211572	0.1443151	0.0251509	-0.0006979081	-0.0008129872	
-0.0008822874	-0.001211572	0.04701232	0.03119583	-0.0008960807	-0.001414348	0.0392667	0.06364291	
0.1443151	0.0251509	-0.0008960807	-0.001414348	0.2888479	0.1092795	-0.0007483429	-0.0008194137	
-0.0006979081	-0.0008129872	0.0392667	0.06364291	-0.0007483429	-0.0008194137	0.02620185	0.0732972	

2.15e+009	0.1396751	-0.008031116	-0.00147277	0.000440134	0.06813813	-0.02254419	-0.001020711	0.0004601244	
-0.00147277	0.000440134	0.1271023	0.06894067	-0.001635853	0.0005820034	0.1501677	0.09415363	
0.06813813	-0.02254419	-0.001635853	0.0005820034	0.1433807	0.02867538	-0.0009931326	0.0004906108	
-0.001020711	0.0004601244	0.1501677	0.09415363	-0.0009931326	0.0004906108	0.1517621	0.09199185	

2.2e+009	0.2884908	0.03115347	0.0005829566	0.001708483	0.1225655	0.01924002	0.0006050017	0.001161911	
0.0005829566	0.001708483	0.09643695	-0.007596974	0.00075925	0.001727998	0.1120656	-0.006017835	
0.1225655	0.01924002	0.00075925	0.001727998	0.3244989	0.04916322	0.0006044394	0.001108975	
0.0006050017	0.001161911	0.1120656	-0.006017835	0.0006044394	0.001108975	0.09506819	0.008755784	

2.25e+009	0.1835081	-0.1843651	0.001594105	-0.0004452482	0.0816923	-0.04166291	0.001058621	-0.0004913294	
0.001594105	-0.0004452482	0.1401247	0.07352301	0.001500577	-0.0005587311	0.1533874	0.07139265	
0.0816923	-0.04166291	0.001500577	-0.0005587311	0.2049609	-0.1818799	0.001015595	-0.0004827007	
0.001058621	-0.0004913294	0.1533874	0.07139265	0.001015595	-0.0004827007	0.1772723	0.1018095	

2.3e+009	0.1252426	-0.05989307	-0.0001789369	-0.001868689	0.09090956	0.02091112	-0.0003173999	-0.001286988	
-0.0001789369	-0.001868689	0.1682807	-0.05170537	-0.0001455822	-0.001678182	0.1726429	-0.06184987	
0.09090956	0.02091112	-0.0001455822	-0.001678182	0.1651745	-0.05528878	-0.0003064541	-0.001194161	
-0.0003173999	-0.001286988	0.1726429	-0.06184987	-0.0003064541	-0.001194161	0.1987962	-0.06423322	

2.35e+009	0.1195178	-0.1996267	-0.002000719	0.0004873902	0.07766815	-0.02548197	-0.001379567	0.0005773678	
-0.002000719	0.0004873902	0.09883338	0.009080279	-0.001905745	0.0002470605	0.09343867	-0.001894144	
0.07766815	-0.02548197	-0.001905745	0.0002470605	0.1478511	-0.2335591	-0.00131129	0.0004932608	
-0.001379567	0.0005773678	0.09343867	-0.001894144	-0.00131129	0.0004932608	0.1195227	0.01143039	

