!
! FCI USA LLC
! FCI_CC_Long_Link_Pair_11_to_Pair_3_Through.s4p
! 
! PART DESCRIPTION: FCI Connector Concept 0.70 m Simulated Channel Model
!
! FREQUENCY RANGE: 50 MHz to 30 GHz in 50 MHz frequency steps
! 
! PORT DEFINITIONS: 
! Port   1  ----->  TX   Pin G5(Side B) -- Pin G5(Side A)    RX  <-----  Port   2
! Port   3  ----->  TX   Pin H5(Side B) -- Pin H5(Side A)    RX  <-----  Port   4
! 
! Information
!
! FCI endeavors to use its reasonable efforts to place accurate and
! up-to-date information in this Touchstone file.  However, this file is
! provided on an as is basis.  FCI GIVES NO WARRANTY, EXPRESS OR 
! IMPLIED, WITH RESPECT TO ANY INFORMATION PROVIDED IN THIS FILE,
! INCLUDING BUT NOT LIMITED TO THE IMPLIED WARRANTIES OF 
! MERCHANTABILITY, FITNESS FOR A PARTICULAR PURPOSE OR NON-INFRINGEMENT.
! FCI SHALL NOT BE LIABLE FOR ANY DIRECT, SPECIAL, INDIRECT, 
! CONSEQUENTIAL, PUNITIVE OR OTHER DAMAGES BASED ON USE OF THIS FILE.
!
! -----------------------------------------------------------------------------
!
#	Hz	S	RI	R	50
5e+007	0.06652041	0.07360585	0.8344004	-0.5003591	0.04752182	0.07631469	-0.01475768	-0.007137778	
0.8344004	-0.5003591	0.06652041	0.07360585	-0.01475768	-0.007137778	0.04752182	0.07631469	
0.04752182	0.07631469	-0.01475768	-0.007137778	0.06977937	0.07772517	0.832618	-0.5022375	
-0.01475768	-0.007137778	0.04752182	0.07631469	0.832618	-0.5022375	0.06977937	0.07772517	

1e+008	0.01093732	-0.01556354	-0.917879	-0.07559551	0.01206413	-0.002671126	-0.008403831	-0.006484015	
-0.917879	-0.07559551	0.01093732	-0.01556354	-0.008403831	-0.006484015	0.01206413	-0.002671126	
0.01206413	-0.002671126	-0.008403831	-0.006484015	0.01083802	-0.01057332	-0.9181298	-0.07130538	
-0.008403831	-0.006484015	0.01206413	-0.002671126	-0.9181298	-0.07130538	0.01083802	-0.01057332	

1.5e+008	0.1620099	0.005775928	-0.1241466	0.8668441	0.1661708	0.02406537	-0.001233033	-0.01688535	
-0.1241466	0.8668441	0.1620099	0.005775928	-0.001233033	-0.01688535	0.1661708	0.02406537	
0.1661708	0.02406537	-0.001233033	-0.01688535	0.1751748	0.006522876	-0.1190636	0.8649214	
-0.001233033	-0.01688535	0.1661708	0.02406537	-0.1190636	0.8649214	0.1751748	0.006522876	

2e+008	0.02228115	-0.03079388	0.8624379	0.1916501	0.02749264	-0.04174547	0.007394771	0.01392519	
0.8624379	0.1916501	0.02228115	-0.03079388	0.007394771	0.01392519	0.02749264	-0.04174547	
0.02749264	-0.04174547	0.007394771	0.01392519	0.02509736	-0.0378146	0.8625477	0.1866315	
0.007394771	0.01392519	0.02749264	-0.04174547	0.8625477	0.1866315	0.02509736	-0.0378146	

2.5e+008	0.1508318	0.02485478	0.2306441	-0.8166374	0.154052	0.03582549	-0.003212284	0.01021818	
0.2306441	-0.8166374	0.1508318	0.02485478	-0.003212284	0.01021818	0.154052	0.03582549	
0.154052	0.03582549	-0.003212284	0.01021818	0.1629449	0.02457508	0.2228856	-0.8158781	
-0.003212284	0.01021818	0.154052	0.03582549	0.2228856	-0.8158781	0.1629449	0.02457508	

3e+008	0.03769491	-0.04442523	-0.7962692	-0.3051699	0.05144417	-0.08400964	-0.001482991	-0.01985126	
-0.7962692	-0.3051699	0.03769491	-0.04442523	-0.001482991	-0.01985126	0.05144417	-0.08400964	
0.05144417	-0.08400964	-0.001482991	-0.01985126	0.04554927	-0.06767097	-0.7957766	-0.3000733	
-0.001482991	-0.01985126	0.05144417	-0.08400964	-0.7957766	-0.3000733	0.04554927	-0.06767097	

3.5e+008	0.1409292	0.04090949	-0.3385449	0.7604487	0.101675	0.03209609	0.0003696392	0.001809459	
-0.3385449	0.7604487	0.1409292	0.04090949	0.0003696392	0.001809459	0.101675	0.03209609	
0.101675	0.03209609	0.0003696392	0.001809459	0.1314695	0.03265635	-0.3312865	0.7643379	
0.0003696392	0.001809459	0.101675	0.03209609	-0.3312865	0.7643379	0.1314695	0.03265635	

4e+008	0.05561485	-0.05934521	0.7238952	0.4046167	0.06038854	-0.08010426	0.0007966895	0.01746392	
0.7238952	0.4046167	0.05561485	-0.05934521	0.0007966895	0.01746392	0.06038854	-0.08010426	
0.06038854	-0.08010426	0.0007966895	0.01746392	0.060146	-0.07694666	0.7264788	0.3966017	
0.0007966895	0.01746392	0.06038854	-0.08010426	0.7264788	0.3966017	0.060146	-0.07694666	

4.5e+008	0.1218362	0.04893943	0.4382447	-0.689094	0.05186848	0.02085359	0.005488096	-0.0104245	
0.4382447	-0.689094	0.1218362	0.04893943	0.005488096	-0.0104245	0.05186848	0.02085359	
0.05186848	0.02085359	0.005488096	-0.0104245	0.0921663	0.02954566	0.4318667	-0.6967596	
0.005488096	-0.0104245	0.05186848	0.02085359	0.4318667	-0.6967596	0.0921663	0.02954566	

5e+008	0.07290989	-0.06916131	-0.644158	-0.4929585	0.04068695	-0.03223385	-0.008536947	-0.01241014	
-0.644158	-0.4929585	0.07290989	-0.06916131	-0.008536947	-0.01241014	0.04068695	-0.03223385	
0.04068695	-0.03223385	-0.008536947	-0.01241014	0.05733864	-0.05815301	-0.6536651	-0.4815167	
-0.008536947	-0.01241014	0.04068695	-0.03223385	-0.6536651	-0.4815167	0.05733864	-0.05815301	

5.5e+008	0.09632689	0.04764828	-0.522653	0.605426	0.05400473	0.03872269	-0.003967747	0.01455379	
-0.522653	0.605426	0.09632689	0.04764828	-0.003967747	0.01455379	0.05400473	0.03872269	
0.05400473	0.03872269	-0.003967747	0.01455379	0.07455338	0.03544025	-0.513249	0.6153821	
-0.003967747	0.01455379	0.05400473	0.03872269	-0.513249	0.6153821	0.07455338	0.03544025	

6e+008	0.08321575	-0.06414704	0.5547226	0.5660071	0.02653156	0.005239693	0.01579697	0.008209771	
0.5547226	0.5660071	0.08321575	-0.06414704	0.01579697	0.008209771	0.02653156	0.005239693	
0.02653156	0.005239693	0.01579697	0.008209771	0.04924023	-0.02994969	0.5700022	0.552185	
0.01579697	0.008209771	0.02653156	0.005239693	0.5700022	0.552185	0.04924023	-0.02994969	

6.5e+008	0.07760697	0.04529617	0.5879325	-0.5078852	0.09538736	0.09102113	-0.004909138	-0.01633506	
0.5879325	-0.5078852	0.07760697	0.04529617	-0.004909138	-0.01633506	0.09538736	0.09102113	
0.09538736	0.09102113	-0.004909138	-0.01633506	0.08744234	0.06342977	0.5734232	-0.5190977	
-0.004909138	-0.01633506	0.09538736	0.09102113	0.5734232	-0.5190977	0.08744234	0.06342977	

7e+008	0.09052117	-0.05185431	-0.4514754	-0.6269626	0.06863212	-0.00974318	-0.01401777	-0.006527657	
-0.4514754	-0.6269626	0.09052117	-0.05185431	-0.01401777	-0.006527657	0.06863212	-0.00974318	
0.06863212	-0.00974318	-0.01401777	-0.006527657	0.06766977	-0.02617343	-0.4693929	-0.6139417	
-0.01401777	-0.006527657	0.06863212	-0.00974318	-0.4693929	-0.6139417	0.06766977	-0.02617343	

7.5e+008	0.07106682	0.0496095	-0.634397	0.4045022	0.1178283	0.1216938	0.01393031	0.02017951	
-0.634397	0.4045022	0.07106682	0.0496095	0.01393031	0.02017951	0.1178283	0.1216938	
0.1178283	0.1216938	0.01393031	0.02017951	0.1041809	0.09298061	-0.6144197	0.419173	
0.01393031	0.02017951	0.1178283	0.1216938	-0.6144197	0.419173	0.1041809	0.09298061	

8e+008	0.1098016	-0.04064017	0.3281058	0.6671897	0.1606774	-0.04755672	-0.001365816	0.000206632	
0.3281058	0.6671897	0.1098016	-0.04064017	-0.001365816	0.000206632	0.1606774	-0.04755672	
0.1606774	-0.04755672	-0.001365816	0.000206632	0.1302824	-0.04291494	0.3417581	0.6543528	
-0.001365816	0.000206632	0.1606774	-0.04755672	0.3417581	0.6543528	0.1302824	-0.04291494	

8.5e+008	0.06383339	0.05297244	0.6811636	-0.2955312	0.09103538	0.0753006	-0.004912822	-0.02388828	
0.6811636	-0.2955312	0.06383339	0.05297244	-0.004912822	-0.02388828	0.09103538	0.0753006	
0.09103538	0.0753006	-0.004912822	-0.02388828	0.09235316	0.08300095	0.6637228	-0.3154058	
-0.004912822	-0.02388828	0.09103538	0.0753006	0.6637228	-0.3154058	0.09235316	0.08300095	

9e+008	0.1380159	-0.03315051	-0.2113322	-0.6831168	0.2137056	-0.06059182	0.007145958	0.01359767	
-0.2113322	-0.6831168	0.1380159	-0.03315051	0.007145958	0.01359767	0.2137056	-0.06059182	
0.2137056	-0.06059182	0.007145958	0.01359767	0.1908578	-0.05361906	-0.2234536	-0.6663396	
0.007145958	0.01359767	0.2137056	-0.06059182	-0.2234536	-0.6663396	0.1908578	-0.05361906	

9.5e+008	0.04889749	0.02396752	-0.7155527	0.1636398	0.04452937	-0.03703706	-0.01448141	0.005689374	
-0.7155527	0.1636398	0.04889749	0.02396752	-0.01448141	0.005689374	0.04452937	-0.03703706	
0.04452937	-0.03703706	-0.01448141	0.005689374	0.05662088	0.0005501204	-0.7075465	0.1798704	
-0.01448141	0.005689374	0.04452937	-0.03703706	-0.7075465	0.1798704	0.05662088	0.0005501204	

1e+009	0.1566362	-0.02622495	0.1045505	0.6998039	0.1704911	-0.04552137	0.003883898	-0.0078449	
0.1045505	0.6998039	0.1566362	-0.02622495	0.003883898	-0.0078449	0.1704911	-0.04552137	
0.1704911	-0.04552137	0.003883898	-0.0078449	0.1923663	-0.04863548	0.1238071	0.6875879	
0.003883898	-0.0078449	0.1704911	-0.04552137	0.1238071	0.6875879	0.1923663	-0.04863548	

1.05e+009	0.04267771	-0.02578062	0.7166154	-0.03731827	0.02537721	-0.1076878	0.01435253	0.009105185	
0.7166154	-0.03731827	0.04267771	-0.02578062	0.01435253	0.009105185	0.02537721	-0.1076878	
0.02537721	-0.1076878	0.01435253	0.009105185	0.03832234	-0.09044048	0.7098509	-0.05183012	
0.01435253	0.009105185	0.02537721	-0.1076878	0.7098509	-0.05183012	0.03832234	-0.09044048	

1.1e+009	0.1337484	-0.01259234	0.009383081	-0.7099787	0.06317338	-0.02042168	-0.005887127	-0.01527006	
0.009383081	-0.7099787	0.1337484	-0.01259234	-0.005887127	-0.01527006	0.06317338	-0.02042168	
0.06317338	-0.02042168	-0.005887127	-0.01527006	0.1080632	-0.02929067	-0.01254489	-0.708955	
-0.005887127	-0.01527006	0.06317338	-0.02042168	-0.01254489	-0.708955	0.1080632	-0.02929067	

1.15e+009	0.03840385	-0.0478055	-0.7068709	-0.06847522	0.01572904	-0.0619201	-0.01947152	0.001261928	
-0.7068709	-0.06847522	0.03840385	-0.0478055	-0.01947152	0.001261928	0.01572904	-0.0619201	
0.01572904	-0.0619201	-0.01947152	0.001261928	0.02583604	-0.09208687	-0.7041056	-0.04581155	
-0.01947152	0.001261928	0.01572904	-0.0619201	-0.7041056	-0.04581155	0.02583604	-0.09208687	

1.2e+009	0.08570727	-0.001407901	-0.1148927	0.6944198	0.00207217	0.001373223	0.009048701	0.02491061	
-0.1148927	0.6944198	0.08570727	-0.001407901	0.009048701	0.02491061	0.00207217	0.001373223	
0.00207217	0.001373223	0.009048701	0.02491061	0.01305478	-0.01279255	-0.09032911	0.6974807	
0.009048701	0.02491061	0.00207217	0.001373223	-0.09032911	0.6974807	0.01305478	-0.01279255	

1.25e+009	0.03320181	-0.01610841	0.6779828	0.1650514	0.006575189	0.04754688	0.02600314	-0.0141556	
0.6779828	0.1650514	0.03320181	-0.01610841	0.02600314	-0.0141556	0.006575189	0.04754688	
0.006575189	0.04754688	0.02600314	-0.0141556	0.01158781	0.009140349	0.6808581	0.1368567	
0.02600314	-0.0141556	0.006575189	0.04754688	0.6808581	0.1368567	0.01158781	0.009140349	

1.3e+009	0.07503243	0.01462321	0.2121009	-0.655792	0.057795	0.03605441	-0.01772847	-0.02684847	
0.2121009	-0.655792	0.07503243	0.01462321	-0.01772847	-0.02684847	0.057795	0.03605441	
0.057795	0.03605441	-0.01772847	-0.02684847	0.02348129	0.01510741	0.1819625	-0.6634363	
-0.01772847	-0.02684847	0.057795	0.03605441	0.1819625	-0.6634363	0.02348129	0.01510741	

1.35e+009	0.03005585	0.03011313	-0.6302423	-0.2499585	0.0171849	0.09737206	-0.02519114	0.03054631	
-0.6302423	-0.2499585	0.03005585	0.03011313	-0.02519114	0.03054631	0.0171849	0.09737206	
0.0171849	0.09737206	-0.02519114	0.03054631	0.005527821	0.1053182	-0.633589	-0.213435	
-0.02519114	0.03054631	0.0171849	0.09737206	-0.633589	-0.213435	0.005527821	0.1053182	

1.4e+009	0.1189029	0.04781939	-0.2997269	0.5854409	0.1622163	0.08131526	0.02295554	0.009843671	
-0.2997269	0.5854409	0.1189029	0.04781939	0.02295554	0.009843671	0.1622163	0.08131526	
0.1622163	0.08131526	0.02295554	0.009843671	0.1354514	0.07143277	-0.2705084	0.5900797	
0.02295554	0.009843671	0.1622163	0.08131526	-0.2705084	0.5900797	0.1354514	0.07143277	

1.45e+009	0.04852576	0.0209574	0.5689825	0.3445137	0.06535115	0.03146323	0.0288443	-0.02505383	
0.5689825	0.3445137	0.04852576	0.0209574	0.0288443	-0.02505383	0.06535115	0.03146323	
0.06535115	0.03146323	0.0288443	-0.02505383	0.03868449	0.08007034	0.5803387	0.3062685	
0.0288443	-0.02505383	0.06535115	0.03146323	0.5803387	0.3062685	0.03868449	0.08007034	

1.5e+009	0.1640548	0.07508001	0.3676273	-0.5097678	0.2001192	0.08727977	-0.04039624	0.0008825066	
0.3676273	-0.5097678	0.1640548	0.07508001	-0.04039624	0.0008825066	0.2001192	0.08727977	
0.2001192	0.08727977	-0.04039624	0.0008825066	0.2278159	0.1112013	0.3321416	-0.5098418	
-0.04039624	0.0008825066	0.2001192	0.08727977	0.3321416	-0.5098418	0.2278159	0.1112013	

1.55e+009	0.1167389	-0.04486582	-0.4678692	-0.4349178	0.1456121	-0.0750206	0.0005448112	0.004238117	
-0.4678692	-0.4349178	0.1167389	-0.04486582	0.0005448112	0.004238117	0.1456121	-0.0750206	
0.1456121	-0.0750206	0.0005448112	0.004238117	0.1450725	-0.04897661	-0.4770882	-0.4088419	
0.0005448112	0.004238117	0.1456121	-0.0750206	-0.4770882	-0.4088419	0.1450725	-0.04897661	

1.6e+009	0.1516663	0.06156599	-0.4477146	0.4421342	0.1444037	0.03887699	0.02928073	0.01624768	
-0.4477146	0.4421342	0.1516663	0.06156599	0.02928073	0.01624768	0.1444037	0.03887699	
0.1444037	0.03887699	0.02928073	0.01624768	0.2081469	0.07934685	-0.4113556	0.4541395	
0.02928073	0.01624768	0.1444037	0.03887699	-0.4113556	0.4541395	0.2081469	0.07934685	

1.65e+009	0.173655	-0.0961924	0.3703257	0.4885224	0.1725597	-0.1105018	-0.01693109	-0.01497418	
0.3703257	0.4885224	0.173655	-0.0961924	-0.01693109	-0.01497418	0.1725597	-0.1105018	
0.1725597	-0.1105018	-0.01693109	-0.01497418	0.2280382	-0.1428134	0.3747886	0.4591535	
-0.01693109	-0.01497418	0.1725597	-0.1105018	0.3747886	0.4591535	0.2280382	-0.1428134	

1.7e+009	0.0733154	-0.02273287	0.5341996	-0.3458082	0.045644	-0.04610392	0.009789088	-0.007454628	
0.5341996	-0.3458082	0.0733154	-0.02273287	0.009789088	-0.007454628	0.045644	-0.04610392	
0.045644	-0.04610392	0.009789088	-0.007454628	0.07995439	-0.05576758	0.5128914	-0.3607254	
0.009789088	-0.007454628	0.045644	-0.04610392	0.5128914	-0.3607254	0.07995439	-0.05576758	

1.75e+009	0.1490137	-0.09647487	-0.2956587	-0.5429602	0.1143129	-0.08036473	-0.005285573	0.005504161	
-0.2956587	-0.5429602	0.1490137	-0.09647487	-0.005285573	0.005504161	0.1143129	-0.08036473	
0.1143129	-0.08036473	-0.005285573	0.005504161	0.1795242	-0.1444052	-0.3131638	-0.5150727	
-0.005285573	0.005504161	0.1143129	-0.08036473	-0.3131638	-0.5150727	0.1795242	-0.1444052	

1.8e+009	0.009451014	-0.09541646	-0.577282	0.2460679	-9.941121e-005	-0.07751483	-0.013617	0.001801174	
-0.577282	0.2460679	0.009451014	-0.09541646	-0.013617	0.001801174	-9.941121e-005	-0.07751483	
-9.941121e-005	-0.07751483	-0.013617	0.001801174	-0.02251209	-0.1661664	-0.5558224	0.2601454	
-0.013617	0.001801174	-9.941121e-005	-0.07751483	-0.5558224	0.2601454	-0.02251209	-0.1661664	

1.85e+009	0.03943939	-0.0405268	0.209951	0.5923843	0.02305402	-0.01550691	0.01707883	0.01747352	
0.209951	0.5923843	0.03943939	-0.0405268	0.01707883	0.01747352	0.02305402	-0.01550691	
0.02305402	-0.01550691	0.01707883	0.01747352	0.005525679	-0.05359933	0.2332153	0.5762608	
0.01707883	0.01747352	0.02305402	-0.01550691	0.2332153	0.5762608	0.005525679	-0.05359933	

1.9e+009	-0.00592003	-0.04572867	0.6019142	-0.1657216	0.008724028	-0.003758917	0.01799684	-0.02338156	
0.6019142	-0.1657216	-0.00592003	-0.04572867	0.01799684	-0.02338156	0.008724028	-0.003758917	
0.008724028	-0.003758917	0.01799684	-0.02338156	-0.04325549	-0.09055757	0.5831001	-0.1934792	
0.01799684	-0.02338156	0.008724028	-0.003758917	0.5831001	-0.1934792	-0.04325549	-0.09055757	

1.95e+009	-0.035551	0.01779545	-0.1242236	-0.6052331	0.00226422	0.02741796	-0.03296089	-0.01588068	
-0.1242236	-0.6052331	-0.035551	0.01779545	-0.03296089	-0.01588068	0.00226422	0.02741796	
0.00226422	0.02741796	-0.03296089	-0.01588068	-0.1151874	0.03643325	-0.1525424	-0.5859514	
-0.03296089	-0.01588068	0.00226422	0.02741796	-0.1525424	-0.5859514	-0.1151874	0.03643325	

2e+009	0.02191763	0.09580154	-0.5988843	0.07714529	0.04593196	0.09354989	-0.008715063	0.03367016	
-0.5988843	0.07714529	0.02191763	0.09580154	-0.008715063	0.03367016	0.04593196	0.09354989	
0.04593196	0.09354989	-0.008715063	0.03367016	0.005354529	0.123287	-0.5845314	0.1054118	
-0.008715063	0.03367016	0.04593196	0.09354989	-0.5845314	0.1054118	0.005354529	0.123287	

2.05e+009	0.03959168	0.04789352	0.02989678	0.5993831	0.0859224	0.0331594	0.03764225	0.01519288	
0.02989678	0.5993831	0.03959168	0.04789352	0.03764225	0.01519288	0.0859224	0.0331594	
0.0859224	0.0331594	0.03764225	0.01519288	-0.0174865	0.07499713	0.0685859	0.586598	
0.03764225	0.01519288	0.0859224	0.0331594	0.0685859	0.586598	-0.0174865	0.07499713	

2.1e+009	0.06321882	0.1726452	0.5748196	0.006106335	0.0795389	0.1031469	-0.005503715	-0.05034582	
0.5748196	0.006106335	0.06321882	0.1726452	-0.005503715	-0.05034582	0.0795389	0.1031469	
0.0795389	0.1031469	-0.005503715	-0.05034582	0.06939708	0.2486531	0.5525348	-0.02807205	
-0.005503715	-0.05034582	0.0795389	0.1031469	0.5525348	-0.02807205	0.06939708	0.2486531	

2.15e+009	0.2050038	0.06617168	0.0779	-0.555711	0.1792442	0.02889073	-0.02269361	0.01179952	
0.0779	-0.555711	0.2050038	0.06617168	-0.02269361	0.01179952	0.1792442	0.02889073	
0.1792442	0.02889073	-0.02269361	0.01179952	0.2205452	0.08741263	0.04898068	-0.5459935	
-0.02269361	0.01179952	0.1792442	0.02889073	0.04898068	-0.5459935	0.2205452	0.08741263	

2.2e+009	0.1049267	0.08064568	-0.5606556	-0.1114548	0.08752705	0.02073433	-0.008799994	0.03699615	
-0.5606556	-0.1114548	0.1049267	0.08064568	-0.008799994	0.03699615	0.08752705	0.02073433	
0.08752705	0.02073433	-0.008799994	0.03699615	0.1220686	0.1435376	-0.5498133	-0.06785287	
-0.008799994	0.03699615	0.08752705	0.02073433	-0.5498133	-0.06785287	0.1220686	0.1435376	

2.25e+009	0.2880717	0.05071461	-0.1565988	0.5091183	0.1842349	0.01326049	0.03318679	-0.02444479	
-0.1565988	0.5091183	0.2880717	0.05071461	0.03318679	-0.02444479	0.1842349	0.01326049	
0.1842349	0.01326049	0.03318679	-0.02444479	0.3516159	0.06398697	-0.1240814	0.4909323	
0.03318679	-0.02444479	0.1842349	0.01326049	-0.1240814	0.4909323	0.3516159	0.06398697	

2.3e+009	0.1695197	-0.1104844	0.5008324	0.2327505	0.1053257	-0.07501486	-0.008956592	0.0009825592	
0.5008324	0.2327505	0.1695197	-0.1104844	-0.008956592	0.0009825592	0.1053257	-0.07501486	
0.1053257	-0.07501486	-0.008956592	0.0009825592	0.1963564	-0.1144105	0.4975238	0.2043842	
-0.008956592	0.0009825592	0.1053257	-0.07501486	0.4975238	0.2043842	0.1963564	-0.1144105	

2.35e+009	0.2056892	-0.01558884	0.2494279	-0.4882328	0.1245578	-0.003020039	-0.02106097	-0.001876411	
0.2494279	-0.4882328	0.2056892	-0.01558884	-0.02106097	-0.001876411	0.1245578	-0.003020039	
0.1245578	-0.003020039	-0.02106097	-0.001876411	0.265254	-0.01861182	0.2094369	-0.4835617	
-0.02106097	-0.001876411	0.1245578	-0.003020039	0.2094369	-0.4835617	0.265254	-0.01861182	

2.4e+009	0.1735851	-0.2074808	-0.4397454	-0.3026951	0.1001309	-0.08815502	0.01485271	0.001973816	
-0.4397454	-0.3026951	0.1735851	-0.2074808	0.01485271	0.001973816	0.1001309	-0.08815502	
0.1001309	-0.08815502	0.01485271	0.001973816	0.2078389	-0.2587788	-0.4309198	-0.2712221	
0.01485271	0.001973816	0.1001309	-0.08815502	-0.4309198	-0.2712221	0.2078389	-0.2587788	

2.45e+009	0.01662902	-0.1170896	-0.3545766	0.4323441	0.04414122	-0.0240433	-0.01288198	0.009974113	
-0.3545766	0.4323441	0.01662902	-0.1170896	-0.01288198	0.009974113	0.04414122	-0.0240433	
0.04414122	-0.0240433	-0.01288198	0.009974113	0.02099757	-0.1460023	-0.3280953	0.4360318	
-0.01288198	0.009974113	0.04414122	-0.0240433	-0.3280953	0.4360318	0.02099757	-0.1460023	

2.5e+009	0.06281921	-0.1417729	0.4061195	0.3740692	0.06400947	-0.04779515	0.01356365	0.004048628	
0.4061195	0.3740692	0.06281921	-0.1417729	0.01356365	0.004048628	0.06400947	-0.04779515	
0.06400947	-0.04779515	0.01356365	0.004048628	0.07888254	-0.1952031	0.4120067	0.3391856	
0.01356365	0.004048628	0.06400947	-0.04779515	0.4120067	0.3391856	0.07888254	-0.1952031	

2.55e+009	-0.08940618	-0.1248195	0.4059773	-0.3709603	0.0240086	-0.01277484	0.01234926	-0.0199379	
0.4059773	-0.3709603	-0.08940618	-0.1248195	0.01234926	-0.0199379	0.0240086	-0.01277484	
0.0240086	-0.01277484	0.01234926	-0.0199379	-0.1297676	-0.1749977	0.3759167	-0.3736011	
0.01234926	-0.0199379	0.0240086	-0.01277484	0.3759167	-0.3736011	-0.1297676	-0.1749977	

2.6e+009	-0.08504827	0.02221716	-0.3426287	-0.4326178	0.0344283	0.01004906	-0.03155926	-0.008859044	
