[Version] 2.0
! Touchstone file exported from Ansys Full-Wave Spice
! Project: unknown
!  Design: unknown
! Creation time: Thu May 07 10:05:16 2026
# HZ S MA R 50
! Modal data exported
! Port[1] = WCK_C[0]
! Port[2] = WCK_T[0]
! Port[3] = DQ[0]
! Port[4] = DQ[1]
! Port[5] = WCK_C[0]
! Port[6] = WCK_T[0]
! Port[7] = DQ[0]
! Port[8] = DQ[1]
[Number of Ports] 8
[Number of Frequencies] 1571
[Matrix Format] Full
[Reference]
  50  ! Port[1]
  50  ! Port[2]
  50  ! Port[3]
  50  ! Port[4]
  50  ! Port[5]
  50  ! Port[6]
  50  ! Port[7]
  50  ! Port[8]
[Network Data]

0.0000000000e+00 5.7059020000e-03 -6.8352033001e-29 1.1470320000e-04 1.3901300488e-26 6.4581440000e-05 -2.0503907770e-27 7.4997900000e-05 5.7750224406e-27 
                 9.9420730000e-01 -4.0528908600e-31 1.2395070000e-04 1.8000000000e+02 6.4271150000e-05 1.8000000000e+02 7.4747860000e-05 1.8000000000e+02 
                 1.1470320000e-04 -3.3670970041e-27 5.3593100000e-03 1.4091212874e-29 4.0489820000e-05 8.4144210170e-27 4.6968740000e-05 3.6415468895e-27 
                 1.2394760000e-04 1.8000000000e+02 9.9436550000e-01 1.1253349134e-31 4.0532500000e-05 1.8000000000e+02 4.7023930000e-05 1.8000000000e+02 
                 6.4581440000e-05 6.8346359233e-28 4.0489820000e-05 8.1759556440e-28 9.9648120000e-03 1.3028937798e-29 2.1922370000e-04 -6.1661161808e-27 
                 6.4270940000e-05 1.8000000000e+02 4.0536290000e-05 1.8000000000e+02 9.8975880000e-01 1.5469160235e-31 2.1912560000e-04 1.8000000000e+02 
                 7.4997900000e-05 -4.0094104842e-27 4.6968740000e-05 -6.2846051157e-27 2.1922370000e-04 -1.8372509437e-27 8.4392350000e-03 4.2781572231e-29 
                 7.4747880000e-05 1.8000000000e+02 4.7027160000e-05 1.8000000000e+02 2.1912580000e-04 1.8000000000e+02 9.9128430000e-01 3.5517358093e-31 
                 9.9420730000e-01 -3.7563378702e-31 1.2394760000e-04 1.8000000000e+02 6.4270940000e-05 1.8000000000e+02 7.4747880000e-05 1.8000000000e+02 
                 5.7059110000e-03 -7.3488895693e-29 1.1469730000e-04 1.8568089997e-26 6.4590570000e-05 -6.8336698345e-28 7.5005510000e-05 1.0004119306e-26 
                 1.2395070000e-04 1.8000000000e+02 9.9436550000e-01 6.1208509158e-32 4.0536290000e-05 1.8000000000e+02 4.7027160000e-05 1.8000000000e+02 
                 1.1469730000e-04 -3.8002049476e-27 5.3593090000e-03 2.4965258517e-29 4.0483290000e-05 7.1891871073e-27 4.6962880000e-05 7.5777123396e-27 
                 6.4271150000e-05 1.8000000000e+02 4.0532500000e-05 1.8000000000e+02 9.8975880000e-01 1.0103730784e-31 2.1912580000e-04 1.8000000000e+02 
                 6.4590570000e-05 -4.6554375748e-27 4.0483290000e-05 -4.0204932638e-27 9.9648140000e-03 1.9119486557e-29 2.1923390000e-04 -1.1350159239e-26 
                 7.4747860000e-05 1.8000000000e+02 4.7023930000e-05 1.8000000000e+02 2.1912560000e-04 1.8000000000e+02 9.9128430000e-01 3.4856408237e-31 
                 7.5005510000e-05 -2.3539104250e-27 4.6962880000e-05 -4.1119369285e-28 2.1923390000e-04 -4.4796637350e-27 8.4392230000e-03 4.1984840470e-29 

1.0000000000e+00 5.7059020000e-03 3.2322210000e-08 1.1470320000e-04 5.3122140000e-06 6.4581440000e-05 -4.7174050000e-07 7.4997900000e-05 -3.9618310000e-07 
                 9.9420730000e-01 -1.6604990000e-09 1.2395070000e-04 -1.8000000000e+02 6.4271150000e-05 1.8000000000e+02 7.4747860000e-05 1.8000000000e+02 
                 1.1470320000e-04 5.3122140000e-06 5.3593100000e-03 6.8834880000e-08 4.0489820000e-05 -4.3957400000e-07 4.6968740000e-05 -3.4557330000e-07 
                 1.2394760000e-04 -1.8000000000e+02 9.9436550000e-01 -1.7691510000e-09 4.0532500000e-05 1.8000000000e+02 4.7023930000e-05 1.8000000000e+02 
                 6.4581440000e-05 -4.7174050000e-07 4.0489820000e-05 -4.3957400000e-07 9.9648120000e-03 7.1154880000e-08 2.1922370000e-04 5.4461060000e-07 
                 6.4270940000e-05 1.8000000000e+02 4.0536290000e-05 1.8000000000e+02 9.8975880000e-01 -2.5922790000e-09 2.1912560000e-04 -1.8000000000e+02 
                 7.4997900000e-05 -3.9618310000e-07 4.6968740000e-05 -3.4557330000e-07 2.1922370000e-04 5.4461060000e-07 8.4392350000e-03 6.5064800000e-08 
                 7.4747880000e-05 1.8000000000e+02 4.7027160000e-05 1.8000000000e+02 2.1912580000e-04 -1.8000000000e+02 9.9128430000e-01 -2.3709980000e-09 
                 9.9420730000e-01 -1.6604990000e-09 1.2394760000e-04 -1.8000000000e+02 6.4270940000e-05 1.8000000000e+02 7.4747880000e-05 1.8000000000e+02 
                 5.7059110000e-03 2.8982460000e-08 1.1469730000e-04 5.7438800000e-06 6.4590570000e-05 -4.7701930000e-07 7.5005510000e-05 -4.0077200000e-07 
                 1.2395070000e-04 -1.8000000000e+02 9.9436550000e-01 -1.7691510000e-09 4.0536290000e-05 1.8000000000e+02 4.7027160000e-05 1.8000000000e+02 
                 1.1469730000e-04 5.7438800000e-06 5.3593090000e-03 5.0655090000e-08 4.0483290000e-05 -4.4508170000e-07 4.6962880000e-05 -3.5130110000e-07 
                 6.4271150000e-05 1.8000000000e+02 4.0532500000e-05 1.8000000000e+02 9.8975880000e-01 -2.5922790000e-09 2.1912580000e-04 -1.8000000000e+02 
                 6.4590570000e-05 -4.7701930000e-07 4.0483290000e-05 -4.4508170000e-07 9.9648140000e-03 7.4926360001e-08 2.1923390000e-04 5.1865260000e-07 
                 7.4747860000e-05 1.8000000000e+02 4.7023930000e-05 1.8000000000e+02 2.1912560000e-04 -1.8000000000e+02 9.9128430000e-01 -2.3709980000e-09 
                 7.5005510000e-05 -4.0077200000e-07 4.6962880000e-05 -3.5130110000e-07 2.1923390000e-04 5.1865260000e-07 8.4392230000e-03 6.7329950000e-08 

1.2589250000e+00 5.7059020000e-03 4.0691630000e-08 1.1470320000e-04 6.6876850000e-06 6.4581440000e-05 -5.9388610000e-07 7.4997900000e-05 -4.9876510000e-07 
                 9.9420730000e-01 -2.0904420000e-09 1.2395070000e-04 -1.8000000000e+02 6.4271150000e-05 1.8000000000e+02 7.4747860000e-05 1.8000000000e+02 
                 1.1470320000e-04 6.6876850000e-06 5.3593100000e-03 8.6657930001e-08 4.0489820000e-05 -5.5339080000e-07 4.6968740000e-05 -4.3505110000e-07 
                 1.2394760000e-04 -1.8000000000e+02 9.9436550000e-01 -2.2272260000e-09 4.0532500000e-05 1.8000000000e+02 4.7023930000e-05 1.8000000000e+02 
                 6.4581440000e-05 -5.9388610000e-07 4.0489820000e-05 -5.5339080000e-07 9.9648120000e-03 8.9578469999e-08 2.1922370000e-04 6.8562370000e-07 
                 6.4270940000e-05 1.8000000000e+02 4.0536290000e-05 1.8000000000e+02 9.8975880000e-01 -3.2634820000e-09 2.1912560000e-04 -1.8000000000e+02 
                 7.4997900000e-05 -4.9876510000e-07 4.6968740000e-05 -4.3505110000e-07 2.1922370000e-04 6.8562370000e-07 8.4392350000e-03 8.1911580000e-08 
                 7.4747880000e-05 1.8000000000e+02 4.7027160000e-05 1.8000000000e+02 2.1912580000e-04 -1.8000000000e+02 9.9128430000e-01 -2.9849080000e-09 
                 9.9420730000e-01 -2.0904420000e-09 1.2394760000e-04 -1.8000000000e+02 6.4270940000e-05 1.8000000000e+02 7.4747880000e-05 1.8000000000e+02 
                 5.7059110000e-03 3.6488040000e-08 1.1469730000e-04 7.2311250000e-06 6.4590570000e-05 -6.0053190000e-07 7.5005510000e-05 -5.0454240000e-07 
                 1.2395070000e-04 -1.8000000000e+02 9.9436550000e-01 -2.2272260000e-09 4.0536290000e-05 1.8000000000e+02 4.7027160000e-05 1.8000000000e+02 
                 1.1469730000e-04 7.2311250000e-06 5.3593090000e-03 6.3770630001e-08 4.0483290000e-05 -5.6032470000e-07 4.6962880000e-05 -4.4226200000e-07 
                 6.4271150000e-05 1.8000000000e+02 4.0532500000e-05 1.8000000000e+02 9.8975880000e-01 -3.2634820000e-09 2.1912580000e-04 -1.8000000000e+02 
                 6.4590570000e-05 -6.0053190000e-07 4.0483290000e-05 -5.6032470000e-07 9.9648140000e-03 9.4325230000e-08 2.1923390000e-04 6.5294530000e-07 
                 7.4747860000e-05 1.8000000000e+02 4.7023930000e-05 1.8000000000e+02 2.1912560000e-04 -1.8000000000e+02 9.9128430000e-01 -2.9849080000e-09 
                 7.5005510000e-05 -5.0454240000e-07 4.6962880000e-05 -4.4226200000e-07 2.1923390000e-04 6.5294530000e-07 8.4392230000e-03 8.4761300000e-08 

1.5848930000e+00 5.7059020000e-03 5.1227910001e-08 1.1470320000e-04 8.4192960000e-06 6.4581440000e-05 -7.4765830000e-07 7.4997900000e-05 -6.2790780000e-07 
                 9.9420730000e-01 -2.6317090000e-09 1.2395070000e-04 -1.8000000000e+02 6.4271150000e-05 1.8000000000e+02 7.4747860000e-05 1.8000000000e+02 
                 1.1470320000e-04 8.4192960000e-06 5.3593100000e-03 1.0909600000e-07 4.0489820000e-05 -6.9667760000e-07 4.6968740000e-05 -5.4769660000e-07 
                 1.2394760000e-04 -1.8000000000e+02 9.9436550000e-01 -2.8039130000e-09 4.0532500000e-05 1.8000000000e+02 4.7023930000e-05 1.8000000000e+02 
                 6.4581440000e-05 -7.4765830000e-07 4.0489820000e-05 -6.9667760000e-07 9.9648120000e-03 1.1277280000e-07 2.1922370000e-04 8.6314910000e-07 
                 6.4270940000e-05 1.8000000000e+02 4.0536290000e-05 1.8000000000e+02 9.8975880000e-01 -4.1084800000e-09 2.1912560000e-04 -1.8000000000e+02 
                 7.4997900000e-05 -6.2790780000e-07 4.6968740000e-05 -5.4769660000e-07 2.1922370000e-04 8.6314910000e-07 8.4392350000e-03 1.0312050000e-07 
                 7.4747880000e-05 1.8000000000e+02 4.7027160000e-05 1.8000000000e+02 2.1912580000e-04 -1.8000000000e+02 9.9128430000e-01 -3.7577820000e-09 
                 9.9420730000e-01 -2.6317090000e-09 1.2394760000e-04 -1.8000000000e+02 6.4270940000e-05 1.8000000000e+02 7.4747880000e-05 1.8000000000e+02 
                 5.7059110000e-03 4.5935090001e-08 1.1469730000e-04 9.1034490000e-06 6.4590570000e-05 -7.5602480000e-07 7.5005510000e-05 -6.3518090000e-07 
                 1.2395070000e-04 -1.8000000000e+02 9.9436550000e-01 -2.8039130000e-09 4.0536290000e-05 1.8000000000e+02 4.7027160000e-05 1.8000000000e+02 
                 1.1469730000e-04 9.1034490000e-06 5.3593090000e-03 8.0281979999e-08 4.0483290000e-05 -7.0540680000e-07 4.6962880000e-05 -5.5677460000e-07 
                 6.4271150000e-05 1.8000000000e+02 4.0532500000e-05 1.8000000000e+02 9.8975880000e-01 -4.1084800000e-09 2.1912580000e-04 -1.8000000000e+02 
                 6.4590570000e-05 -7.5602480000e-07 4.0483290000e-05 -7.0540680000e-07 9.9648140000e-03 1.1874880000e-07 2.1923390000e-04 8.2201060000e-07 
                 7.4747860000e-05 1.8000000000e+02 4.7023930000e-05 1.8000000000e+02 2.1912560000e-04 -1.8000000000e+02 9.9128430000e-01 -3.7577820000e-09 
                 7.5005510000e-05 -6.3518090000e-07 4.6962880000e-05 -5.5677460000e-07 2.1923390000e-04 8.2201060000e-07 8.4392230000e-03 1.0670950000e-07 

1.9952620000e+00 5.7059020000e-03 6.4492410000e-08 1.1470320000e-04 1.0599270000e-05 6.4581440000e-05 -9.4124620000e-07 7.4997900000e-05 -7.9048950000e-07 
                 9.9420730000e-01 -3.3131200000e-09 1.2395070000e-04 -1.8000000000e+02 6.4271150000e-05 1.8000000000e+02 7.4747860000e-05 1.8000000000e+02 
                 1.1470320000e-04 1.0599270000e-05 5.3593100000e-03 1.3734390000e-07 4.0489820000e-05 -8.7706530000e-07 4.6968740000e-05 -6.8950970000e-07 
                 1.2394760000e-04 -1.8000000000e+02 9.9436550000e-01 -3.5299090000e-09 4.0532500000e-05 1.8000000000e+02 4.7023930000e-05 1.8000000000e+02 
                 6.4581440000e-05 -9.4124620000e-07 4.0489820000e-05 -8.7706530000e-07 9.9648120000e-03 1.4197220000e-07 2.1922370000e-04 1.0866390000e-06 
                 6.4270940000e-05 1.8000000000e+02 4.0536290000e-05 1.8000000000e+02 9.8975880000e-01 -5.1722560000e-09 2.1912560000e-04 -1.8000000000e+02 
                 7.4997900000e-05 -7.9048950000e-07 4.6968740000e-05 -6.8950970000e-07 2.1922370000e-04 1.0866390000e-06 8.4392350000e-03 1.2982080000e-07 
                 7.4747880000e-05 1.8000000000e+02 4.7027160000e-05 1.8000000000e+02 2.1912580000e-04 -1.8000000000e+02 9.9128430000e-01 -4.7307530000e-09 
                 9.9420730000e-01 -3.3131200000e-09 1.2394760000e-04 -1.8000000000e+02 6.4270940000e-05 1.8000000000e+02 7.4747880000e-05 1.8000000000e+02 
                 5.7059110000e-03 5.7828910000e-08 1.1469730000e-04 1.1460560000e-05 6.4590570000e-05 -9.5177900000e-07 7.5005510000e-05 -7.9964580000e-07 
                 1.2395070000e-04 -1.8000000000e+02 9.9436550000e-01 -3.5299090000e-09 4.0536290000e-05 1.8000000000e+02 4.7027160000e-05 1.8000000000e+02 
                 1.1469730000e-04 1.1460560000e-05 5.3593090000e-03 1.0107010000e-07 4.0483290000e-05 -8.8805480000e-07 4.6962880000e-05 -7.0093840000e-07 
                 6.4271150000e-05 1.8000000000e+02 4.0532500000e-05 1.8000000000e+02 9.8975880000e-01 -5.1722560000e-09 2.1912580000e-04 -1.8000000000e+02 
                 6.4590570000e-05 -9.5177900000e-07 4.0483290000e-05 -8.8805480000e-07 9.9648140000e-03 1.4949320000e-07 2.1923390000e-04 1.0348490000e-06 
                 7.4747860000e-05 1.8000000000e+02 4.7023930000e-05 1.8000000000e+02 2.1912560000e-04 -1.8000000000e+02 9.9128430000e-01 -4.7307530000e-09 
                 7.5005510000e-05 -7.9964580000e-07 4.6962880000e-05 -7.0093840000e-07 2.1923390000e-04 1.0348490000e-06 8.4392230000e-03 1.3433690000e-07 

2.5118860000e+00 5.7059020000e-03 8.1191170001e-08 1.1470320000e-04 1.3343690000e-05 6.4581440000e-05 -1.1849590000e-06 7.4997900000e-05 -9.9516750000e-07 
                 9.9420730000e-01 -4.1709660000e-09 1.2395070000e-04 -1.8000000000e+02 6.4271150000e-05 1.8000000000e+02 7.4747860000e-05 1.8000000000e+02 
                 1.1470320000e-04 1.3343690000e-05 5.3593100000e-03 1.7290590000e-07 4.0489820000e-05 -1.1041600000e-06 4.6968740000e-05 -8.6804130000e-07 
                 1.2394760000e-04 -1.8000000000e+02 9.9436550000e-01 -4.4438930000e-09 4.0532500000e-05 1.8000000000e+02 4.7023930000e-05 1.8000000000e+02 
                 6.4581440000e-05 -1.1849590000e-06 4.0489820000e-05 -1.1041600000e-06 9.9648120000e-03 1.7873230000e-07 2.1922370000e-04 1.3679980000e-06 
                 6.4270940000e-05 1.8000000000e+02 4.0536290000e-05 1.8000000000e+02 9.8975880000e-01 -6.5114830000e-09 2.1912560000e-04 -1.8000000000e+02 
                 7.4997900000e-05 -9.9516750000e-07 4.6968740000e-05 -8.6804130000e-07 2.1922370000e-04 1.3679980000e-06 8.4392350000e-03 1.6343470000e-07 
                 7.4747880000e-05 1.8000000000e+02 4.7027160000e-05 1.8000000000e+02 2.1912580000e-04 -1.8000000000e+02 9.9128430000e-01 -5.9556680000e-09 
                 9.9420730000e-01 -4.1709660000e-09 1.2394760000e-04 -1.8000000000e+02 6.4270940000e-05 1.8000000000e+02 7.4747880000e-05 1.8000000000e+02 
                 5.7059110000e-03 7.2803560000e-08 1.1469730000e-04 1.4427990000e-05 6.4590570000e-05 -1.1982190000e-06 7.5005510000e-05 -1.0066950000e-06 
                 1.2395070000e-04 -1.8000000000e+02 9.9436550000e-01 -4.4438930000e-09 4.0536290000e-05 1.8000000000e+02 4.7027160000e-05 1.8000000000e+02 
                 1.1469730000e-04 1.4427990000e-05 5.3593090000e-03 1.2723950000e-07 4.0483290000e-05 -1.1179950000e-06 4.6962880000e-05 -8.8242900000e-07 
                 6.4271150000e-05 1.8000000000e+02 4.0532500000e-05 1.8000000000e+02 9.8975880000e-01 -6.5114830000e-09 2.1912580000e-04 -1.8000000000e+02 
                 6.4590570000e-05 -1.1982190000e-06 4.0483290000e-05 -1.1179950000e-06 9.9648140000e-03 1.8820120000e-07 2.1923390000e-04 1.3027960000e-06 
                 7.4747860000e-05 1.8000000000e+02 4.7023930000e-05 1.8000000000e+02 2.1912560000e-04 -1.8000000000e+02 9.9128430000e-01 -5.9556680000e-09 
                 7.5005510000e-05 -1.0066950000e-06 4.6962880000e-05 -8.8242900000e-07 2.1923390000e-04 1.3027960000e-06 8.4392230000e-03 1.6912080000e-07 

3.1622780000e+00 5.7059020000e-03 1.0221340000e-07 1.1470320000e-04 1.6798710000e-05 6.4581440000e-05 -1.4917750000e-06 7.4997900000e-05 -1.2528420000e-06 
                 9.9420730000e-01 -5.2509420000e-09 1.2395070000e-04 -1.8000000000e+02 6.4271150000e-05 1.8000000000e+02 7.4747860000e-05 1.8000000000e+02 
                 1.1470320000e-04 1.6798710000e-05 5.3593100000e-03 2.1767540000e-07 4.0489820000e-05 -1.3900550000e-06 4.6968740000e-05 -1.0927990000e-06 
                 1.2394760000e-04 -1.8000000000e+02 9.9436550000e-01 -5.5945320000e-09 4.0532500000e-05 1.8000000000e+02 4.7023930000e-05 1.8000000000e+02 
                 6.4581440000e-05 -1.4917750000e-06 4.0489820000e-05 -1.3900550000e-06 9.9648120000e-03 2.2501080000e-07 2.1922370000e-04 1.7222070000e-06 
                 6.4270940000e-05 1.8000000000e+02 4.0536290000e-05 1.8000000000e+02 9.8975880000e-01 -8.1974840000e-09 2.1912560000e-04 -1.8000000000e+02 
                 7.4997900000e-05 -1.2528420000e-06 4.6968740000e-05 -1.0927990000e-06 2.1922370000e-04 1.7222070000e-06 8.4392350000e-03 2.0575230000e-07 
                 7.4747880000e-05 1.8000000000e+02 4.7027160000e-05 1.8000000000e+02 2.1912580000e-04 -1.8000000000e+02 9.9128430000e-01 -7.4977450000e-09 
                 9.9420730000e-01 -5.2509420000e-09 1.2394760000e-04 -1.8000000000e+02 6.4270940000e-05 1.8000000000e+02 7.4747880000e-05 1.8000000000e+02 
                 5.7059110000e-03 9.1653349999e-08 1.1469730000e-04 1.8163770000e-05 6.4590570000e-05 -1.5084680000e-06 7.5005510000e-05 -1.2673530000e-06 
                 1.2395070000e-04 -1.8000000000e+02 9.9436550000e-01 -5.5945320000e-09 4.0536290000e-05 1.8000000000e+02 4.7027160000e-05 1.8000000000e+02 
                 1.1469730000e-04 1.8163770000e-05 5.3593090000e-03 1.6018470000e-07 4.0483290000e-05 -1.4074720000e-06 4.6962880000e-05 -1.1109120000e-06 
                 6.4271150000e-05 1.8000000000e+02 4.0532500000e-05 1.8000000000e+02 9.8975880000e-01 -8.1974840000e-09 2.1912580000e-04 -1.8000000000e+02 
                 6.4590570000e-05 -1.5084680000e-06 4.0483290000e-05 -1.4074720000e-06 9.9648140000e-03 2.3693210000e-07 2.1923390000e-04 1.6401240000e-06 
                 7.4747860000e-05 1.8000000000e+02 4.7023930000e-05 1.8000000000e+02 2.1912560000e-04 -1.8000000000e+02 9.9128430000e-01 -7.4977450000e-09 
                 7.5005510000e-05 -1.2673530000e-06 4.6962880000e-05 -1.1109120000e-06 2.1923390000e-04 1.6401240000e-06 8.4392230000e-03 2.1291100000e-07 

3.9810720000e+00 5.7059020000e-03 1.2867890000e-07 1.1470320000e-04 2.1148320000e-05 6.4581440000e-05 -1.8780330000e-06 7.4997900000e-05 -1.5772340000e-06 
                 9.9420730000e-01 -6.6105470000e-09 1.2395070000e-04 -1.8000000000e+02 6.4271150000e-05 1.8000000000e+02 7.4747860000e-05 1.8000000000e+02 
                 1.1470320000e-04 2.1148320000e-05 5.3593100000e-03 2.7403710000e-07 4.0489820000e-05 -1.7499750000e-06 4.6968740000e-05 -1.3757520000e-06 
                 1.2394760000e-04 -1.8000000000e+02 9.9436550000e-01 -7.0431030000e-09 4.0532500000e-05 1.8000000000e+02 4.7023930000e-05 1.8000000000e+02 
                 6.4581440000e-05 -1.8780330000e-06 4.0489820000e-05 -1.7499750000e-06 9.9648120000e-03 2.8327200000e-07 2.1922370000e-04 2.1681310000e-06 
                 6.4270940000e-05 1.8000000000e+02 4.0536290000e-05 1.8000000000e+02 9.8975880000e-01 -1.0320020000e-08 2.1912560000e-04 -1.8000000000e+02 
                 7.4997900000e-05 -1.5772340000e-06 4.6968740000e-05 -1.3757520000e-06 2.1922370000e-04 2.1681310000e-06 8.4392350000e-03 2.5902690000e-07 
                 7.4747880000e-05 1.8000000000e+02 4.7027160000e-05 1.8000000000e+02 2.1912580000e-04 -1.8000000000e+02 9.9128430000e-01 -9.4391040000e-09 
                 9.9420730000e-01 -6.6105470000e-09 1.2394760000e-04 -1.8000000000e+02 6.4270940000e-05 1.8000000000e+02 7.4747880000e-05 1.8000000000e+02 
                 5.7059110000e-03 1.1538550000e-07 1.1469730000e-04 2.2866820000e-05 6.4590570000e-05 -1.8990490000e-06 7.5005510000e-05 -1.5955030000e-06 
                 1.2395070000e-04 -1.8000000000e+02 9.9436550000e-01 -7.0431030000e-09 4.0536290000e-05 1.8000000000e+02 4.7027160000e-05 1.8000000000e+02 
                 1.1469730000e-04 2.2866820000e-05 5.3593090000e-03 2.0166040000e-07 4.0483290000e-05 -1.7719020000e-06 4.6962880000e-05 -1.3985560000e-06 
