! Touchstone file exported from HFSS 3D Layout Design 2025.1.0
!        File:           E:/temp/HSD_PCIE_UT.aedt
!        Generated:      10:09:20 PM Sep  1, 2025
!        Design:         main_cutout
!        Project:        HSD_PCIE_UT
!        Setup:          SIwaveSYZ1
!        Solution:       Sweep1
!
# GHz S MA R 50.000000
! Terminal data exported
! Port[1] = U1.AL25.PCIe_Gen4_TX0_CAP_N
! Port[2] = U1.AM25.PCIe_Gen4_TX0_CAP_P
! Port[3] = U1.AN26.PCIe_Gen4_RX0_N
! Port[4] = U1.AP25.PCIe_Gen4_RX1_N
! Port[5] = U1.AP26.PCIe_Gen4_RX0_P
! Port[6] = U1.AR25.PCIe_Gen4_RX1_P
! Port[7] = U1.AU16.PCIe_Gen4_TX1_CAP_P
! Port[8] = U1.AU17.PCIe_Gen4_TX1_CAP_N
! Port[9] = X1.A2.PCIe_Gen4_RX0_P
! Port[10] = X1.A3.PCIe_Gen4_RX0_N
! Port[11] = X1.A5.PCIe_Gen4_RX1_P
! Port[12] = X1.A6.PCIe_Gen4_RX1_N
! Port[13] = X1.B2.PCIe_Gen4_TX0_P
! Port[14] = X1.B3.PCIe_Gen4_TX0_N
! Port[15] = X1.B5.PCIe_Gen4_TX1_P
! Port[16] = X1.B6.PCIe_Gen4_TX1_N
0.005                          0.0290808718316697 -79.5398430745171 0.00402906681906557 81.388556268929  2.15455717890399E-06 64.2364465870662 2.11575527533008E-06 64.9621662448951 
                               2.16815694187877E-06 64.0030664027543 2.12786812410344E-06 64.9156266659122 2.76272718711585E-05 70.9445410008857 2.41817435965907E-05 69.8451808555303 
                               2.19475894206404E-06 -114.661231715632 2.18141896689218E-06 -114.405468576677 2.1536743396788E-06 -113.821777414171 2.14297257843286E-06 -113.698807712144 
                               0.0012211472931198 -116.017322830421 0.994580999998468 0.770986776927896 2.7698083236133E-05 -108.09075210259 2.42478245611425E-05 -109.196023345017 
                               0.00402906681906557 81.388556268929  0.0290446714837825 -79.4763844544505 2.12497752928462E-06 63.1055594286665 2.08684032056089E-06 64.6361874919897 
                               2.151517202991E-06 63.4134126662697 2.12178873643761E-06 64.8553529318275 2.5813840470152E-05 70.9401068045646 2.24676747723239E-05 69.7690994699801 
                               2.17642359763652E-06 -115.275459972124 2.14932640524709E-06 -115.540711030304 2.14659754642328E-06 -113.921037718459 2.11264565110689E-06 -114.038873860747 
                               0.994562142290846 0.769616037263433 0.00122106748495659 -116.020478136899 2.58818815780831E-05 -108.092945880614 2.25311059096072E-05 -109.269221404345 
                               2.15455717890399E-06 64.2364465870662 2.12497752928462E-06 63.1055594286665 0.00462656890229652 13.6925542297445 7.66254064390766E-05 64.0672868207586 
                               0.00268861615945021 76.1622670505677 0.000123578676694655 63.3957798459963 1.82686683489816E-05 68.3014928684396 1.85277596329141E-05 68.2802025724666 
                               0.000686495024285997 -148.747935631284 0.995431327691728 -0.887011461197902 7.73695465231117E-05 -135.242419092722 6.0122873558655E-05 -124.101476710929 
                               2.12970202739515E-06 -116.949560778825 2.15995482701333E-06 -115.831018713576 1.83561057957735E-05 -112.254206348245 1.8614372611777E-05 -112.274980960006 
                               2.11575527533008E-06 64.9621662448951 2.08684032056089E-06 64.6361874919897 7.66254064390766E-05 64.0672868207586 0.00441112923187395 13.4247939687254 
                               5.90836756218615E-05 63.8529663940732 0.00252193803710275 76.1846442353405 1.9420709565425E-05 68.2614373695565 1.97241600842335E-05 68.2358990278501 
                               5.38898254603228E-05 -119.329512689361 6.01307737752662E-05 -124.194301884307 0.000645055946082115 -148.728410560401 0.995638720247974 -0.841791201534412 
                               2.09207394141892E-06 -115.434758940189 2.12117692253739E-06 -115.115481681718 1.95061351788908E-05 -112.297237637897 1.98087557208324E-05 -112.322579871851 
                               2.16815694187877E-06 64.0030664027543 2.151517202991E-06 63.4134126662697 0.00268861615945021 76.1622670505677 5.90836756218615E-05 63.8529663940732 
                               0.00461779947028328 13.8062572582274 6.91353808432919E-05 63.5014073103154 1.77170691131289E-05 68.3376304500127 1.79869632729488E-05 68.3161907847729 
                               0.99544210840768 -0.885980235155634 0.00068646523198715 -148.749197294925 5.68662660824459E-05 -123.148956875318 5.38879203146101E-05 -119.306307203065 
                               2.15680189514227E-06 -116.632027020049 2.17380834270197E-06 -116.047809082788 1.78039397587845E-05 -112.216143235357 1.80730164935147E-05 -112.237399833687 
                               2.12786812410344E-06 64.9156266659122 2.12178873643761E-06 64.8553529318275 0.000123578676694655 63.3957798459963 0.00252193803710275 76.1846442353405 
                               6.91353808432919E-05 63.5014073103154 0.00432068921752223 13.4353297039798 1.87514893894119E-05 68.2613930273509 1.90741415667923E-05 68.2148618885911 
                               5.6867728740515E-05 -123.122576909606 7.73832026498743E-05 -135.274813429042 0.995727168743149 -0.83213370292769 0.00064500046184094 -148.735692679152 
                               2.12702586868773E-06 -115.205669400052 2.13315845074872E-06 -115.144229415514 1.88327249793059E-05 -112.293827894631 1.91545251067667E-05 -112.340634060307 
                               2.76272718711585E-05 70.9445410008857 2.5813840470152E-05 70.9401068045646 1.82686683489816E-05 68.3014928684396 1.9420709565425E-05 68.2614373695565 
                               1.77170691131289E-05 68.3376304500127 1.87514893894119E-05 68.2613930273509 0.0314507505391921 -78.4686104275407 0.00225496888765344 77.6094120718045 
                               1.78300588889526E-05 -113.993052444119 1.83826225164793E-05 -113.986324434982 1.88570697890679E-05 -113.805589323028 1.95318369066289E-05 -113.837644832907 
                               2.58347595227782E-05 -108.498898667127 2.76491512031595E-05 -108.468312226595 0.9940707213636  0.921165888984692 0.000594047574201959 -148.474869058217 
                               2.41817435965907E-05 69.8451808555303 2.24676747723239E-05 69.7690994699801 1.85277596329141E-05 68.2802025724666 1.97241600842335E-05 68.2358990278501 
                               1.79869632729488E-05 68.3161907847729 1.90741415667923E-05 68.2148618885911 0.00225496888765344 77.6094120718045 0.0314854297051329 -78.5638011678613 
                               1.81004358439687E-05 -113.989203444726 1.86422100164923E-05 -113.984184072249 1.91803650376752E-05 -113.826821928321 1.98358166785697E-05 -113.839364682653 
                               2.248740798354E-05 -109.679255465005 2.42021526283468E-05 -109.574381593164 0.000594121248089912 -148.47296639687 0.994117220248368 0.930099629495577 
                               2.19475894206404E-06 -114.661231715632 2.17642359763652E-06 -115.275459972124 0.000686495024285997 -148.747935631284 5.38898254603228E-05 -119.329512689361 
                               0.99544210840768 -0.885980235155634 5.6867728740515E-05 -123.122576909606 1.78300588889526E-05 -113.993052444119 1.81004358439687E-05 -113.989203444726 
                               0.00461404138206786 13.6490795312036 0.0026904899198899 76.2896293407691 6.91546625378618E-05 62.7390654637122 5.90908675082085E-05 62.9790272188459 
                               2.17323880812098E-06 64.6903204038258 2.19189945539262E-06 65.301542524415  1.77470455364642E-05 65.4975964258907 1.80180461502598E-05 65.5005714415201 
                               2.18141896689218E-06 -114.405468576677 2.14932640524709E-06 -115.540711030304 0.995431327691728 -0.887011461197902 6.01307737752662E-05 -124.194301884307 
                               0.00068646523198715 -148.749197294925 7.73832026498743E-05 -135.274813429042 1.83826225164793E-05 -113.986324434982 1.86422100164923E-05 -113.984184072249 
                               0.0026904899198899 76.2896293407691 0.00462283387171215 13.5343815958479 0.000123556243864264 62.7541142164868 7.66214787659079E-05 63.2102857356486 
                               2.1455013616568E-06 64.4151135881008 2.17822066655202E-06 65.5422489376502 1.82988358044302E-05 65.5012460530078 1.85590485567756E-05 65.5029102171453 
                               2.1536743396788E-06 -113.821777414171 2.14659754642328E-06 -113.921037718459 7.73695465231117E-05 -135.242419092722 0.000645055946082115 -148.728410560401 
                               5.68662660824459E-05 -123.148956875318 0.995727168743149 -0.83213370292769 1.88570697890679E-05 -113.805589323028 1.91803650376752E-05 -113.826821928321 
                               6.91546625378618E-05 62.7390654637122 0.000123556243864264 62.7541142164868 0.00431748655536833 13.2869426723035 0.00252363206837796 76.3082471260983 
                               2.14390310401321E-06 66.0335825995898 2.15099732002028E-06 66.1346598152439 1.87791704371143E-05 65.6787488962422 1.91029623785781E-05 65.6560116036843 
                               2.14297257843286E-06 -113.698807712144 2.11264565110689E-06 -114.038873860747 6.0122873558655E-05 -124.101476710929 0.995638720247974 -0.841791201534412 
                               5.38879203146101E-05 -119.306307203065 0.00064500046184094 -148.735692679152 1.95318369066289E-05 -113.837644832907 1.98358166785697E-05 -113.839364682653 
                               5.90908675082085E-05 62.9790272188459 7.66214787659079E-05 63.2102857356486 0.00252363206837796 76.3082471260983 0.00440804800978642 13.2705228485679 
                               2.10952249620323E-06 65.9065772393861 2.13999148979648E-06 66.2413983985389 1.94496641999407E-05 65.6438613696595 1.97542352940769E-05 65.6413250550147 
                               0.0012211472931198 -116.017322830421 0.994562142290846 0.769616037263433 2.12970202739515E-06 -116.949560778825 2.09207394141892E-06 -115.434758940189 
                               2.15680189514227E-06 -116.632027020049 2.12702586868773E-06 -115.205669400052 2.58347595227782E-05 -108.498898667127 2.248740798354E-05 -109.679255465005 
                               2.17323880812098E-06 64.6903204038258 2.1455013616568E-06 64.4151135881008 2.14390310401321E-06 66.0335825995898 2.10952249620323E-06 65.9065772393861 
                               0.0290312250592276 -79.4284018322927 0.00402825578420615 81.3834248784377 2.58858397292362E-05 72.4740784072376 2.25339733075602E-05 71.2884672015578 
                               0.994580999998468 0.770986776927896 0.00122106748495659 -116.020478136899 2.15995482701333E-06 -115.831018713576 2.12117692253739E-06 -115.115481681718 
                               2.17380834270197E-06 -116.047809082788 2.13315845074872E-06 -115.144229415514 2.76491512031595E-05 -108.468312226595 2.42021526283468E-05 -109.574381593164 
                               2.19189945539262E-06 65.301542524415  2.17822066655202E-06 65.5422489376502 2.15099732002028E-06 66.1346598152439 2.13999148979648E-06 66.2413983985389 
                               0.00402825578420615 81.3834248784377 0.0290697858467408 -79.4687022750251 2.77029856156364E-05 72.5020309728481 2.42513544049535E-05 71.390082718453  
                               2.7698083236133E-05 -108.09075210259 2.58818815780831E-05 -108.092945880614 1.83561057957735E-05 -112.254206348245 1.95061351788908E-05 -112.297237637897 
                               1.78039397587845E-05 -112.216143235357 1.88327249793059E-05 -112.293827894631 0.9940707213636  0.921165888984692 0.000594121248089912 -148.47296639687 
                               1.77470455364642E-05 65.4975964258907 1.82988358044302E-05 65.5012460530078 1.87791704371143E-05 65.6787488962422 1.94496641999407E-05 65.6438613696595 
                               2.58858397292362E-05 72.4740784072376 2.77029856156364E-05 72.5020309728481 0.0312955993482887 -79.9582465612264 0.00228648170576438 74.6970634121401 
                               2.42478245611425E-05 -109.196023345017 2.25311059096072E-05 -109.269221404345 1.8614372611777E-05 -112.274980960006 1.98087557208324E-05 -112.322579871851 
                               1.80730164935147E-05 -112.237399833687 1.91545251067667E-05 -112.340634060307 0.000594047574201959 -148.474869058217 0.994117220248368 0.930099629495577 
                               1.80180461502598E-05 65.5005714415201 1.85590485567756E-05 65.5029102171453 1.91029623785781E-05 65.6560116036843 1.97542352940769E-05 65.6413250550147 
                               2.25339733075602E-05 71.2884672015578 2.42513544049535E-05 71.390082718453  0.00228648170576438 74.6970634121401 0.0313328025984565 -80.043108770348 
! Gamma         0                0                0                0                0                0                0                0                0                0                0                0                0                0                0                0                0                0                0                0                0                0                0                0                0                0                0                0                0                0                0                0                
! Port Impedance         50               0                50               0                50               0                50               0                50               0                50               0                50               0                50               0                50               0                50               0                50               0                50               0                50               0                50               0                50               0                50               0                
0.267894736842105              0.0869170546533718 0.783822463154277 0.165912022117346 35.9437908964615 4.86217394558345E-05 63.2875521723731 4.97611516389977E-05 64.4263734717166 
                               4.86299321928157E-05 62.4531144200573 4.95364004538195E-05 62.0152326108055 0.00116023183115487 -0.942862314379037 0.000996822769005667 -0.175681642753761 
                               7.52121710306164E-05 -166.026738576088 7.51939783174852E-05 -165.499249636845 7.41318388617711E-05 -163.736378233034 7.4247615709847E-05 -164.275749694452 
                               0.0371633978573865 -158.919579122069 0.961942488021206 -49.8546652464107 0.00121547851638429 -143.109197774764 0.00103527830842451 -144.38038745129 
                               0.165912022117346 35.9437908964615 0.0887651779673539 1.14506228400722 4.60790730166693E-05 60.3636577348234 4.79258543107031E-05 62.4849457171709 
                               4.66462883336872E-05 60.0585362563892 4.83823065984293E-05 60.328119970429  0.001076222139815 -1.15215509781344 0.000917350906272042 -0.370977428163126 
                               7.44486556101595E-05 -164.966213026315 7.3956450869323E-05 -164.712055651347 7.40516620248547E-05 -162.297952656171 7.36699779512706E-05 -162.92563486636 
                               0.961785220799158 -49.9178297743216 0.0370487334999259 -158.929815963086 0.00113372912263694 -143.448865133956 0.000958531561607062 -144.810546065458 
                               4.86217394558345E-05 63.2875521723731 4.60790730166693E-05 60.3636577348234 0.0213359531707987 -81.4390611198645 0.00256729966878402 67.2026235946002 
                               0.11409445981635 43.4810925220544 0.00420747983903765 61.2053367827234 0.00126654191048102 135.64719835969  0.0012774883828771 135.363329117336 
                               0.00948014489260347 -127.499634610444 0.973627366804525 -42.1069795561661 0.0022167323473347 -139.232567177045 0.0025346465936705 -138.321095445547 
                               8.05926957674233E-05 -126.89872626536 8.14414218621926E-05 -125.489428944268 0.00153717964500412 -89.7885703229928 0.0015449528706493 -89.5519100526532 
                               4.97611516389977E-05 64.4263734717166 4.79258543107031E-05 62.4849457171709 0.00256729966878402 67.2026235946002 0.0208914866824772 -82.6464193738384 
                               0.00179163083351084 67.4528020825199 0.108187917545476 45.9346304201481 0.00126838907940169 131.908603269732 0.0012810870430099 131.58375232834  
                               0.00245811117013045 -140.682064415418 0.00250589292017712 -143.111088707534 0.00889523926243569 -125.130192608846 0.975271296584314 -39.9721553751947 
                               8.09411968137476E-05 -126.701675326914 8.10145693742233E-05 -125.173643736885 0.0015449830040891 -92.6134544461498 0.00155422472955438 -92.4203545085084 
                               4.86299321928157E-05 62.4531144200573 4.66462883336872E-05 60.0585362563892 0.11409445981635 43.4810925220544 0.00179163083351084 67.4528020825199 
                               0.0211196351632947 -80.6414432112952 0.00228636142556224 64.4665413846437 0.00124507792201833 136.666158190237 0.00125643328964302 136.351293956841 
                               0.973669472994359 -42.0536511168786 0.0094794057195217 -127.09901463357 0.00238971993422842 -140.869151008269 0.00241865358202842 -138.360085751086 
                               8.09336850786181E-05 -126.407092508518 8.11518976341E-05 -125.005561492645 0.00151104256343904 -88.9883909540969 0.00151928435373642 -88.7701741027276 
                               4.95364004538195E-05 62.0152326108055 4.83823065984293E-05 60.328119970429  0.00420747983903765 61.2053367827234 0.108187917545476 45.9346304201481 
                               0.00228636142556224 64.4665413846437 0.0208587603619865 -81.9228021268872 0.00119808230300638 132.416553016784 0.0012113898690096 132.038062857259 
                               0.00245772855123853 -140.963102205246 0.00221334648597378 -142.189786694812 0.975521146542013 -39.5311986164986 0.00886397367983095 -124.557332967253 
                               8.04721735528556E-05 -126.804239135002 7.9960812383034E-05 -125.37634797967 0.00146686014524579 -92.0986165648769 0.00147673526233998 -91.9432555235413 
                               0.00116023183115487 -0.942862314379037 0.001076222139815 -1.15215509781344 0.00126654191048102 135.64719835969  0.00126838907940169 131.908603269732 
                               0.00124507792201833 136.666158190237 0.00119808230300638 132.416553016784 0.039414305184473 -101.70774057369 0.0927819332557099 47.5805597657213 
                               0.00151356911093068 179.272723316247 0.0015383141841091 179.995880178238 0.00148497192312474 -175.527306716152 0.00155141024306402 -175.869958654206 
                               0.00106081003748828 -148.205489654946 0.00115157445748403 -146.872884965692 0.974941456082109 -42.522141999516 0.00579391038756988 -110.254320108367 
                               0.000996822769005667 -0.175681642753761 0.000917350906272042 -0.370977428163126 0.0012774883828771 135.363329117336 0.0012810870430099 131.58375232834  
                               0.00125643328964302 136.351293956841 0.0012113898690096 132.038062857259 0.0927819332557099 47.5805597657213 0.0408917911130754 -101.50696935368 
                               0.00152307738381041 179.640985314211 0.00154750125489635 -179.659367796678 0.00149620293990741 -175.090606889762 0.00156203471675377 -175.474495540218 
                               0.000915712959077294 -147.940269001842 0.00100143264454661 -146.48580244656 0.00568928952573174 -111.247330817961 0.975054601989578 -42.0934233858454 
                               7.52121710306164E-05 -166.026738576088 7.44486556101595E-05 -164.966213026315 0.00948014489260347 -127.499634610444 0.00245811117013045 -140.682064415418 
